
SetupTitle, SET
PrimitiveTest, I/V Sweep
TestParameter, Context.MainFrame, B1500A
TestParameter, Channel.UnitType, SMU, SMU
TestParameter, Channel.Unit, SMU3:MP, SMU4:MP
TestParameter, Channel.IName, Itop, Ibot
TestParameter, Channel.VName, Vtop, Vbot
TestParameter, Channel.Mode, V, V
TestParameter, Channel.Func, VAR1, CONST
TestParameter, Channel.Index, 
TestParameter, Channel.Time, 
TestParameter, Measurement.Port.Unit, SMU3:MP, SMU4:MP
TestParameter, Measurement.Port.SeriesResistor, NONE, NONE
TestParameter, Measurement.Port.Filter, ON, ON
TestParameter, Measurement.Port.OutputVoltageComparison, 0, 0
TestParameter, Measurement.Primary.Locus, Double
TestParameter, Measurement.Primary.Scale, LINEAR
TestParameter, Measurement.Primary.Start, 0
TestParameter, Measurement.Primary.Stop, 1.2
TestParameter, Measurement.Primary.Step, 0.012
TestParameter, Measurement.Primary.Compliance, 0.0006
TestParameter, Measurement.Primary.PowerCompliance, 0
TestParameter, Measurement.Aborting.Condition, CONTINUE AT ANY
TestParameter, Measurement.PostOutput.Value, START
TestParameter, Measurement.PostOutput.Retention, OFF
TestParameter, Measurement.Bias.Source, 0, 0
TestParameter, Measurement.Bias.Compliance, 0.0006, 0.1
TestParameter, Measurement.Monitor.Unit, SMU3:MP, SMU4:MP
TestParameter, Measurement.Monitor.Adc, HR ADC, HR ADC
TestParameter, Measurement.Monitor.Measurement, Compliance Side, Compliance Side
TestParameter, Measurement.Monitor.RangingMode, LIMITED, LIMITED
TestParameter, Measurement.Monitor.RangeBoundary, 1nA, 1nA
TestParameter, Measurement.Monitor.RangeRating, BY FULL RANGE, BY FULL RANGE
TestParameter, Measurement.Monitor.RangeRatingCoeff, 50, 50
TestParameter, Measurement.Timing.Hold, 0
TestParameter, Measurement.Timing.Delay, 0
TestParameter, Measurement.Adc.HighSpeed.Mode, AUTO
TestParameter, Measurement.Adc.HighSpeed.Coeff, 1
TestParameter, Measurement.Adc.HighResolution.AutoZero, OFF
TestParameter, Measurement.Adc.HighResolution.Mode, AUTO
TestParameter, Measurement.Adc.HighResolution.Coeff, 6
TestParameter, Measurement.WaitTime.Source.Coeff, 1
TestParameter, Measurement.WaitTime.Source.Offset, 0
TestParameter, Measurement.WaitTime.Monitor.Coeff, 1
TestParameter, Measurement.WaitTime.Monitor.Offset, 0
TestParameter, Function.User.Name, Resistance, absItop
TestParameter, Function.User.Unit, ohm, A
TestParameter, Function.User.Definition, abs(Vtop/Itop), abs(Itop)
TestParameter, Output.Graph.Enabled, true
TestParameter, Output.Graph.AutoScaling, false
TestParameter, Output.Graph.XAxis.Data, Vtop
TestParameter, Output.Graph.XAxis.Scale, Linear
TestParameter, Output.Graph.XAxis.Left, 0
TestParameter, Output.Graph.XAxis.Right, 3.5
TestParameter, Output.Graph.XAxis.RunTimeAutoScale, true
TestParameter, Output.Graph.YAxis.Data, absItop
TestParameter, Output.Graph.YAxis.Scale, Linear
TestParameter, Output.Graph.YAxis.Bottom, 0
TestParameter, Output.Graph.YAxis.Top, 1
TestParameter, Output.Graph.YAxis.Group, 
TestParameter, Output.Graph.YAxis.RunTimeAutoScale, true
TestParameter, Output.List.Data, Vtop, Itop, Resistance
TestParameter, AutoAnalysis.Interpolation, false
TestParameter, AutoAnalysis.Line1.Enabled, false
TestParameter, AutoAnalysis.Line1.Type, 1
TestParameter, AutoAnalysis.Line1.Fix, True
TestParameter, AutoAnalysis.Line1.YAxis, 0
TestParameter, AutoAnalysis.Line1.Point1.Type, 0
TestParameter, AutoAnalysis.Line1.Point1.XY.X, 
TestParameter, AutoAnalysis.Line1.Point1.XY.Y, 
TestParameter, AutoAnalysis.Line1.Point1.Data.Var, 
TestParameter, AutoAnalysis.Line1.Point1.Data.Condition, 
TestParameter, AutoAnalysis.Line1.Point1.Data.Start, false
TestParameter, AutoAnalysis.Line1.Point1.Data.StartVar, 
TestParameter, AutoAnalysis.Line1.Point1.Data.StartCondition, 
TestParameter, AutoAnalysis.Line1.Point2.Type, 0
TestParameter, AutoAnalysis.Line1.Point2.XY.X, 
TestParameter, AutoAnalysis.Line1.Point2.XY.Y, 
TestParameter, AutoAnalysis.Line1.Point2.Data.Var, 
TestParameter, AutoAnalysis.Line1.Point2.Data.Condition, 
TestParameter, AutoAnalysis.Line1.Point2.Data.Start, false
TestParameter, AutoAnalysis.Line1.Point2.Data.StartVar, 
TestParameter, AutoAnalysis.Line1.Point2.Data.StartCondition, 
TestParameter, AutoAnalysis.Line1.GradientExpr, 0
TestParameter, AutoAnalysis.Line2.Enabled, false
TestParameter, AutoAnalysis.Line2.Type, 1
TestParameter, AutoAnalysis.Line2.Fix, True
TestParameter, AutoAnalysis.Line2.YAxis, 0
TestParameter, AutoAnalysis.Line2.Point1.Type, 0
TestParameter, AutoAnalysis.Line2.Point1.XY.X, 
TestParameter, AutoAnalysis.Line2.Point1.XY.Y, 
TestParameter, AutoAnalysis.Line2.Point1.Data.Var, 
TestParameter, AutoAnalysis.Line2.Point1.Data.Condition, 
TestParameter, AutoAnalysis.Line2.Point1.Data.Start, false
TestParameter, AutoAnalysis.Line2.Point1.Data.StartVar, 
TestParameter, AutoAnalysis.Line2.Point1.Data.StartCondition, 
TestParameter, AutoAnalysis.Line2.Point2.Type, 0
TestParameter, AutoAnalysis.Line2.Point2.XY.X, 
TestParameter, AutoAnalysis.Line2.Point2.XY.Y, 
TestParameter, AutoAnalysis.Line2.Point2.Data.Var, 
TestParameter, AutoAnalysis.Line2.Point2.Data.Condition, 
TestParameter, AutoAnalysis.Line2.Point2.Data.Start, false
TestParameter, AutoAnalysis.Line2.Point2.Data.StartVar, 
TestParameter, AutoAnalysis.Line2.Point2.Data.StartCondition, 
TestParameter, AutoAnalysis.Line2.GradientExpr, 0
TestParameter, AutoAnalysis.Marker.Enabled, false
TestParameter, AutoAnalysis.Marker.Data.Var, 
TestParameter, AutoAnalysis.Marker.Data.Condition, 
TestParameter, AutoAnalysis.Marker.Data.Start, false
TestParameter, AutoAnalysis.Marker.Data.StartVar, 
TestParameter, AutoAnalysis.Marker.Data.StartCondition, 
MetaData, TestRecord.EntryPoint, true
MetaData, TestRecord.RecordTime, 03/03/2020 15:38:51
MetaData, TestRecord.TestTarget, 
MetaData, TestRecord.IterationIndex, 2
MetaData, TestRecord.Preservation, true
MetaData, TestRecord.Flag, 
MetaData, TestRecord.Remarks, 
MetaData, TestRecord.LinkKey, eae3a155-47c3-4f10-ba67-d9f965284b1e
Dimension1, 202, 202, 202, 202
Dimension2, 1, 1, 1, 1
DataName, Vtop, Itop, Resistance, absItop
DataValue, 0, 1.9784E-09, 0, 1.9784E-09
DataValue, 0.012, 6.6752E-07, 17976.989453499522, 6.6752E-07
DataValue, 0.024, 1.3321000000000001E-06, 18016.665415509346, 1.3321000000000001E-06
DataValue, 0.036000000000000004, 1.9974E-06, 18023.430459597479, 1.9974E-06
DataValue, 0.048, 2.6594000000000003E-06, 18049.184026472136, 2.6594000000000003E-06
DataValue, 0.060000000000000005, 3.3386000000000005E-06, 17971.60486431438, 3.3386000000000005E-06
DataValue, 0.072000000000000008, 4.0072E-06, 17967.658215212618, 4.0072E-06
DataValue, 0.084, 4.7005E-06, 17870.439314966494, 4.7005E-06
DataValue, 0.096, 5.3830000000000008E-06, 17833.921605052943, 5.3830000000000008E-06
DataValue, 0.108, 6.099E-06, 17707.820954254796, 6.099E-06
DataValue, 0.12000000000000001, 6.8019000000000009E-06, 17642.129405019186, 6.8019000000000009E-06
DataValue, 0.132, 7.5489000000000007E-06, 17485.99133648611, 7.5489000000000007E-06
DataValue, 0.14400000000000002, 8.2884E-06, 17373.6788765021, 8.2884E-06
DataValue, 0.156, 9.038E-06, 17260.455853064836, 9.038E-06
DataValue, 0.168, 9.771400000000001E-06, 17193.032728165872, 9.771400000000001E-06
DataValue, 0.18000000000000002, 1.0564400000000002E-05, 17038.355230775054, 1.0564400000000002E-05
DataValue, 0.192, 1.13729E-05, 16882.237599908553, 1.13729E-05
DataValue, 0.20400000000000002, 1.2204E-05, 16715.830875122912, 1.2204E-05
DataValue, 0.216, 1.3000000000000001E-05, 16615.384615384613, 1.3000000000000001E-05
DataValue, 0.228, 1.3854E-05, 16457.340840190558, 1.3854E-05
DataValue, 0.24000000000000002, 1.4740000000000001E-05, 16282.225237449118, 1.4740000000000001E-05
DataValue, 0.252, 1.5598000000000002E-05, 16155.917425310936, 1.5598000000000002E-05
DataValue, 0.264, 1.6556000000000002E-05, 15945.880647499394, 1.6556000000000002E-05
DataValue, 0.276, 1.7482E-05, 15787.667314952525, 1.7482E-05
DataValue, 0.28800000000000003, 1.8402E-05, 15650.472774698403, 1.8402E-05
DataValue, 0.3, 1.9342000000000002E-05, 15510.288491365936, 1.9342000000000002E-05
DataValue, 0.312, 2.0348000000000002E-05, 15333.202280322388, 2.0348000000000002E-05
DataValue, 0.324, 2.1354E-05, 15172.801348693454, 2.1354E-05
DataValue, 0.336, 2.2376E-05, 15016.088666428317, 2.2376E-05
DataValue, 0.34800000000000003, 2.338E-05, 14884.516680923867, 2.338E-05
DataValue, 0.36000000000000004, 2.4462E-05, 14716.703458425314, 2.4462E-05
DataValue, 0.372, 2.5568E-05, 14549.436795994994, 2.5568E-05
DataValue, 0.384, 2.6698E-05, 14383.099857667241, 2.6698E-05
DataValue, 0.396, 2.7802000000000002E-05, 14243.57959859003, 2.7802000000000002E-05
DataValue, 0.40800000000000003, 2.8996E-05, 14070.906331907851, 2.8996E-05
DataValue, 0.42000000000000004, 3.0174E-05, 13919.268244183735, 3.0174E-05
DataValue, 0.432, 3.1394E-05, 13760.591195769894, 3.1394E-05
DataValue, 0.444, 3.2658E-05, 13595.443689142019, 3.2658E-05
DataValue, 0.456, 3.3934000000000004E-05, 13437.849944008958, 3.3934000000000004E-05
DataValue, 0.468, 3.5146E-05, 13315.882319467366, 3.5146E-05
DataValue, 0.48000000000000004, 3.6552E-05, 13131.976362442549, 3.6552E-05
DataValue, 0.49200000000000005, 3.7834000000000004E-05, 13004.176137865412, 3.7834000000000004E-05
DataValue, 0.504, 3.9196E-05, 12858.45494438208, 3.9196E-05
DataValue, 0.516, 4.0652E-05, 12693.102430384728, 4.0652E-05
DataValue, 0.528, 4.2056E-05, 12554.688986113753, 4.2056E-05
DataValue, 0.54, 4.3508000000000004E-05, 12411.510526799668, 4.3508000000000004E-05
DataValue, 0.552, 4.5016000000000004E-05, 12262.306735382976, 4.5016000000000004E-05
DataValue, 0.56400000000000006, 4.6546000000000005E-05, 12117.045503373007, 4.6546000000000005E-05
DataValue, 0.57600000000000007, 4.8168000000000004E-05, 11958.146487294471, 4.8168000000000004E-05
DataValue, 0.58800000000000008, 4.9686000000000005E-05, 11834.31952662722, 4.9686000000000005E-05
DataValue, 0.6, 5.127E-05, 11702.750146284376, 5.127E-05
DataValue, 0.612, 5.3074E-05, 11531.069827033953, 5.3074E-05
DataValue, 0.624, 5.4674E-05, 11413.10312031313, 5.4674E-05
DataValue, 0.636, 5.6484E-05, 11259.825791374547, 5.6484E-05
DataValue, 0.648, 5.8368E-05, 11101.973684210527, 5.8368E-05
DataValue, 0.66, 6.0042000000000006E-05, 10992.305386229638, 6.0042000000000006E-05
DataValue, 0.672, 6.1860000000000007E-05, 10863.239573229874, 6.1860000000000007E-05
DataValue, 0.684, 6.3828E-05, 10716.30005640158, 6.3828E-05
DataValue, 0.69600000000000006, 6.5888E-05, 10563.380281690141, 6.5888E-05
DataValue, 0.70800000000000007, 6.7892E-05, 10428.327343427798, 6.7892E-05
DataValue, 0.72000000000000008, 6.9928E-05, 10296.304770621211, 6.9928E-05
DataValue, 0.732, 7.21E-05, 10152.56588072122, 7.21E-05
DataValue, 0.744, 7.4276E-05, 10016.694490818029, 7.4276E-05
DataValue, 0.756, 7.6474E-05, 9885.7127912754659, 7.6474E-05
DataValue, 0.768, 7.8664E-05, 9763.0428150106782, 7.8664E-05
DataValue, 0.78, 8.1058000000000009E-05, 9622.7392731130785, 8.1058000000000009E-05
DataValue, 0.792, 8.346E-05, 9489.5758447160315, 8.346E-05
DataValue, 0.804, 8.5898E-05, 9359.9385317469569, 8.5898E-05
DataValue, 0.81600000000000006, 8.8388000000000008E-05, 9232.0224464859475, 8.8388000000000008E-05
DataValue, 0.82800000000000007, 9.092E-05, 9106.9071711394645, 9.092E-05
DataValue, 0.84000000000000008, 9.3658E-05, 8968.8013837579274, 9.3658E-05
DataValue, 0.85200000000000009, 9.6380000000000009E-05, 8840.0083004772769, 9.6380000000000009E-05
DataValue, 0.864, 9.9050000000000009E-05, 8722.8672387682982, 9.9050000000000009E-05
DataValue, 0.876, 0.00010190000000000001, 8596.66339548577, 0.00010190000000000001
DataValue, 0.888, 0.000104948, 8461.3332316956967, 0.000104948
DataValue, 0.9, 0.000107952, 8337.0386838594932, 0.000107952
DataValue, 0.912, 0.00011129400000000001, 8194.5118335220232, 0.00011129400000000001
DataValue, 0.924, 0.000114482, 8071.1378207927883, 0.000114482
DataValue, 0.936, 0.00011774000000000001, 7949.7197214200778, 0.00011774000000000001
DataValue, 0.94800000000000006, 0.00012104, 7832.12161269002, 0.00012104
DataValue, 0.96000000000000008, 0.00012452, 7709.6048827497589, 0.00012452
DataValue, 0.97200000000000009, 0.0001281, 7587.8220140515232, 0.0001281
DataValue, 0.9840000000000001, 0.00013184, 7463.5922330097092, 0.00013184
DataValue, 0.996, 0.00013552, 7349.4687131050769, 0.00013552
DataValue, 1.008, 0.00013952000000000002, 7224.7706422018337, 0.00013952000000000002
DataValue, 1.02, 0.00014326, 7119.9218204662848, 0.00014326
DataValue, 1.032, 0.00014754000000000001, 6994.7132980886536, 0.00014754000000000001
DataValue, 1.044, 0.00015214000000000002, 6862.1006967266985, 0.00015214000000000002
DataValue, 1.056, 0.0001566, 6743.2950191570881, 0.0001566
DataValue, 1.068, 0.00016130000000000002, 6621.2027278363294, 0.00016130000000000002
DataValue, 1.08, 0.0001663, 6494.2874323511733, 0.0001663
DataValue, 1.092, 0.00017082000000000002, 6392.6940639269405, 0.00017082000000000002
DataValue, 1.104, 0.00017584000000000002, 6278.4349408553226, 0.00017584000000000002
DataValue, 1.116, 0.00018082000000000002, 6171.8836411901339, 0.00018082000000000002
DataValue, 1.1280000000000001, 0.00018592, 6067.1256454388986, 0.00018592
DataValue, 1.1400000000000001, 0.00019184, 5942.4520433694752, 0.00019184
DataValue, 1.1520000000000001, 0.00019788000000000002, 5821.7101273499093, 0.00019788000000000002
DataValue, 1.1640000000000002, 0.00020356, 5718.2157594812343, 0.00020356
DataValue, 1.1760000000000002, 0.00021012, 5596.8018275271279, 0.00021012
DataValue, 1.1880000000000002, 0.00021666, 5483.2456383273338, 0.00021666
DataValue, 1.2, 0.00022304, 5380.2008608321376, 0.00022304
DataValue, 1.2, 0.0002234, 5371.5308863025957, 0.0002234
DataValue, 1.1880000000000002, 0.00021614, 5496.4374942167124, 0.00021614
DataValue, 1.1760000000000002, 0.00021004000000000002, 5598.9335364692442, 0.00021004000000000002
DataValue, 1.1640000000000002, 0.00020462, 5688.5934903723983, 0.00020462
DataValue, 1.1520000000000001, 0.00019784000000000002, 5822.8871815608572, 0.00019784000000000002
DataValue, 1.1400000000000001, 0.00019218000000000002, 5931.9388073680921, 0.00019218000000000002
DataValue, 1.1280000000000001, 0.00018652000000000002, 6047.608835513618, 0.00018652000000000002
DataValue, 1.116, 0.00018160000000000002, 6145.3744493392069, 0.00018160000000000002
DataValue, 1.104, 0.00017606000000000002, 6270.5895717369076, 0.00017606000000000002
DataValue, 1.092, 0.00017108000000000002, 6382.9787234042551, 0.00017108000000000002
DataValue, 1.08, 0.00016614, 6500.5417118093173, 0.00016614
DataValue, 1.068, 0.00016152, 6612.184249628529, 0.00016152
DataValue, 1.056, 0.00015704, 6724.4014263881818, 0.00015704
DataValue, 1.044, 0.00015238, 6851.292820580129, 0.00015238
DataValue, 1.032, 0.00014846, 6951.3673716826088, 0.00014846
DataValue, 1.02, 0.00014402000000000002, 7082.3496736564357, 0.00014402000000000002
DataValue, 1.008, 0.00014006, 7196.9156075967439, 0.00014006
DataValue, 0.996, 0.0001365, 7296.7032967032965, 0.0001365
DataValue, 0.9840000000000001, 0.00013214000000000002, 7446.6474950809743, 0.00013214000000000002
DataValue, 0.97200000000000009, 0.00012854, 7561.8484518437836, 0.00012854
DataValue, 0.96000000000000008, 0.000125, 7680, 0.000125
DataValue, 0.94800000000000006, 0.00012156000000000001, 7798.6179664363281, 0.00012156000000000001
DataValue, 0.936, 0.00011814, 7922.8034535297111, 0.00011814
DataValue, 0.924, 0.00011492, 8040.3759136790814, 0.00011492
DataValue, 0.912, 0.00011158000000000001, 8173.5077970962529, 0.00011158000000000001
DataValue, 0.9, 0.00010850000000000001, 8294.9308755760358, 0.00010850000000000001
DataValue, 0.888, 0.0001055, 8417.0616113744072, 0.0001055
DataValue, 0.876, 0.00010254, 8543.0076067875943, 0.00010254
DataValue, 0.864, 9.9714E-05, 8664.7812744449129, 9.9714E-05
DataValue, 0.85200000000000009, 9.6972E-05, 8786.041331518376, 9.6972E-05
DataValue, 0.84000000000000008, 9.4254000000000009E-05, 8912.0886116239089, 9.4254000000000009E-05
DataValue, 0.82800000000000007, 9.1598E-05, 9039.49867901046, 9.1598E-05
DataValue, 0.81600000000000006, 8.8926000000000009E-05, 9176.1689494636, 8.8926000000000009E-05
DataValue, 0.804, 8.6386000000000009E-05, 9307.0636445720374, 8.6386000000000009E-05
DataValue, 0.792, 8.3998E-05, 9428.7959237124687, 8.3998E-05
DataValue, 0.78, 8.1586E-05, 9560.4638050645954, 8.1586E-05
DataValue, 0.768, 7.9254E-05, 9690.3626315391029, 7.9254E-05
DataValue, 0.756, 7.7032E-05, 9814.1032298265654, 7.7032E-05
DataValue, 0.744, 7.4858000000000007E-05, 9938.8174944561688, 7.4858000000000007E-05
DataValue, 0.732, 7.2654E-05, 10075.150714344702, 7.2654E-05
DataValue, 0.72000000000000008, 7.0524E-05, 10209.290454313426, 7.0524E-05
DataValue, 0.70800000000000007, 6.8438E-05, 10345.12989859435, 6.8438E-05
DataValue, 0.69600000000000006, 6.642E-05, 10478.771454381211, 6.642E-05
DataValue, 0.684, 6.4402E-05, 10620.788174280304, 6.4402E-05
DataValue, 0.672, 6.2452E-05, 10760.263882661884, 6.2452E-05
DataValue, 0.66, 6.059E-05, 10892.886614952962, 6.059E-05
DataValue, 0.648, 5.8712E-05, 11036.926011718217, 5.8712E-05
DataValue, 0.636, 5.6926000000000004E-05, 11172.399255173383, 5.6926000000000004E-05
DataValue, 0.624, 5.512E-05, 11320.754716981131, 5.512E-05
DataValue, 0.612, 5.3348000000000005E-05, 11471.845242558295, 5.3348000000000005E-05
DataValue, 0.6, 5.1686E-05, 11608.559377781217, 5.1686E-05
DataValue, 0.58800000000000008, 5.0058E-05, 11746.374205921133, 5.0058E-05
DataValue, 0.57600000000000007, 4.8400000000000004E-05, 11900.826446280993, 4.8400000000000004E-05
DataValue, 0.56400000000000006, 4.6848E-05, 12038.934426229509, 4.6848E-05
DataValue, 0.552, 4.533E-05, 12177.365982792853, 4.533E-05
DataValue, 0.54, 4.3844E-05, 12316.394489553873, 4.3844E-05
DataValue, 0.528, 4.2380000000000004E-05, 12458.706937234543, 4.2380000000000004E-05
DataValue, 0.516, 4.0916E-05, 12611.203441196598, 4.0916E-05
DataValue, 0.504, 3.9478000000000004E-05, 12766.604184609148, 3.9478000000000004E-05
DataValue, 0.49200000000000005, 3.8106000000000004E-05, 12911.352542906629, 3.8106000000000004E-05
DataValue, 0.48000000000000004, 3.6638000000000004E-05, 13101.151809596593, 3.6638000000000004E-05
DataValue, 0.468, 3.5338E-05, 13243.533872884715, 3.5338E-05
DataValue, 0.456, 3.4070000000000004E-05, 13384.208981508658, 3.4070000000000004E-05
DataValue, 0.444, 3.2736E-05, 13563.049853372435, 3.2736E-05
DataValue, 0.432, 3.155E-05, 13692.551505546751, 3.155E-05
DataValue, 0.42000000000000004, 3.0298E-05, 13862.301141989572, 3.0298E-05
DataValue, 0.40800000000000003, 2.9128E-05, 14007.14089535842, 2.9128E-05
DataValue, 0.396, 2.79E-05, 14193.548387096775, 2.79E-05
DataValue, 0.384, 2.6796000000000002E-05, 14330.497089117778, 2.6796000000000002E-05
DataValue, 0.372, 2.5664E-05, 14495.01246882793, 2.5664E-05
DataValue, 0.36000000000000004, 2.4602E-05, 14632.956670189418, 2.4602E-05
DataValue, 0.34800000000000003, 2.3512E-05, 14800.952705001702, 2.3512E-05
DataValue, 0.336, 2.2444E-05, 14970.593477098557, 2.2444E-05
DataValue, 0.324, 2.1424E-05, 15123.226288274833, 2.1424E-05
DataValue, 0.312, 2.0432E-05, 15270.164447924824, 2.0432E-05
DataValue, 0.3, 1.9454E-05, 15420.99311195641, 1.9454E-05
DataValue, 0.28800000000000003, 1.8486000000000002E-05, 15579.35735150925, 1.8486000000000002E-05
DataValue, 0.276, 1.7556E-05, 15721.120984278881, 1.7556E-05
DataValue, 0.264, 1.6604E-05, 15899.783184774755, 1.6604E-05
DataValue, 0.252, 1.5692E-05, 16059.138414478714, 1.5692E-05
DataValue, 0.24000000000000002, 1.4826E-05, 16187.778227438286, 1.4826E-05
DataValue, 0.228, 1.3942E-05, 16353.464352316742, 1.3942E-05
DataValue, 0.216, 1.31E-05, 16488.549618320612, 1.31E-05
DataValue, 0.20400000000000002, 1.2228E-05, 16683.022571148183, 1.2228E-05
