
SetupTitle, RESET
PrimitiveTest, I/V Sweep
TestParameter, Context.MainFrame, B1500A
TestParameter, Channel.UnitType, SMU, SMU
TestParameter, Channel.Unit, SMU4:MP, SMU3:MP
TestParameter, Channel.IName, Itop, Ibot
TestParameter, Channel.VName, Vtop, Vbot
TestParameter, Channel.Mode, V, COMMON
TestParameter, Channel.Func, VAR1, CONST
TestParameter, Channel.Index, 
TestParameter, Channel.Time, 
TestParameter, Measurement.Port.Unit, SMU4:MP, SMU3:MP
TestParameter, Measurement.Port.SeriesResistor, NONE, NONE
TestParameter, Measurement.Port.Filter, ON, ON
TestParameter, Measurement.Port.OutputVoltageComparison, 0, 0
TestParameter, Measurement.Primary.Locus, Double
TestParameter, Measurement.Primary.Scale, LINEAR
TestParameter, Measurement.Primary.Start, 0
TestParameter, Measurement.Primary.Stop, 1.7000000000000002
TestParameter, Measurement.Primary.Step, 0.05
TestParameter, Measurement.Primary.Compliance, 0.002
TestParameter, Measurement.Primary.PowerCompliance, 0
TestParameter, Measurement.Aborting.Condition, CONTINUE AT ANY
TestParameter, Measurement.PostOutput.Value, START
TestParameter, Measurement.PostOutput.Retention, OFF
TestParameter, Measurement.Bias.Source, 0, 0
TestParameter, Measurement.Bias.Compliance, 0.002, 0.1
TestParameter, Measurement.Monitor.Unit, SMU4:MP, SMU3:MP
TestParameter, Measurement.Monitor.Adc, HR ADC, HR ADC
TestParameter, Measurement.Monitor.Measurement, Compliance Side, Compliance Side
TestParameter, Measurement.Monitor.RangingMode, LIMITED, LIMITED
TestParameter, Measurement.Monitor.RangeBoundary, 1nA, 1nA
TestParameter, Measurement.Monitor.RangeRating, BY FULL RANGE, BY FULL RANGE
TestParameter, Measurement.Monitor.RangeRatingCoeff, 50, 50
TestParameter, Measurement.Timing.Hold, 0
TestParameter, Measurement.Timing.Delay, 0
TestParameter, Measurement.Adc.HighSpeed.Mode, AUTO
TestParameter, Measurement.Adc.HighSpeed.Coeff, 1
TestParameter, Measurement.Adc.HighResolution.AutoZero, OFF
TestParameter, Measurement.Adc.HighResolution.Mode, AUTO
TestParameter, Measurement.Adc.HighResolution.Coeff, 6
TestParameter, Measurement.WaitTime.Source.Coeff, 1
TestParameter, Measurement.WaitTime.Source.Offset, 0
TestParameter, Measurement.WaitTime.Monitor.Coeff, 1
TestParameter, Measurement.WaitTime.Monitor.Offset, 0
TestParameter, Function.User.Name, Resistance, absItop
TestParameter, Function.User.Unit, ohm, A
TestParameter, Function.User.Definition, abs(Vtop/Itop), abs(Itop)
TestParameter, Output.Graph.Enabled, true
TestParameter, Output.Graph.AutoScaling, false
TestParameter, Output.Graph.XAxis.Data, Vtop
TestParameter, Output.Graph.XAxis.Scale, Linear
TestParameter, Output.Graph.XAxis.Left, 0
TestParameter, Output.Graph.XAxis.Right, 3.5
TestParameter, Output.Graph.XAxis.RunTimeAutoScale, true
TestParameter, Output.Graph.YAxis.Data, absItop
TestParameter, Output.Graph.YAxis.Scale, Linear
TestParameter, Output.Graph.YAxis.Bottom, 0
TestParameter, Output.Graph.YAxis.Top, 1
TestParameter, Output.Graph.YAxis.Group, 
TestParameter, Output.Graph.YAxis.RunTimeAutoScale, true
TestParameter, Output.List.Data, Vtop, Itop, Resistance
TestParameter, AutoAnalysis.Interpolation, false
TestParameter, AutoAnalysis.Line1.Enabled, false
TestParameter, AutoAnalysis.Line1.Type, 1
TestParameter, AutoAnalysis.Line1.Fix, True
TestParameter, AutoAnalysis.Line1.YAxis, 0
TestParameter, AutoAnalysis.Line1.Point1.Type, 0
TestParameter, AutoAnalysis.Line1.Point1.XY.X, 
TestParameter, AutoAnalysis.Line1.Point1.XY.Y, 
TestParameter, AutoAnalysis.Line1.Point1.Data.Var, 
TestParameter, AutoAnalysis.Line1.Point1.Data.Condition, 
TestParameter, AutoAnalysis.Line1.Point1.Data.Start, false
TestParameter, AutoAnalysis.Line1.Point1.Data.StartVar, 
TestParameter, AutoAnalysis.Line1.Point1.Data.StartCondition, 
TestParameter, AutoAnalysis.Line1.Point2.Type, 0
TestParameter, AutoAnalysis.Line1.Point2.XY.X, 
TestParameter, AutoAnalysis.Line1.Point2.XY.Y, 
TestParameter, AutoAnalysis.Line1.Point2.Data.Var, 
TestParameter, AutoAnalysis.Line1.Point2.Data.Condition, 
TestParameter, AutoAnalysis.Line1.Point2.Data.Start, false
TestParameter, AutoAnalysis.Line1.Point2.Data.StartVar, 
TestParameter, AutoAnalysis.Line1.Point2.Data.StartCondition, 
TestParameter, AutoAnalysis.Line1.GradientExpr, 0
TestParameter, AutoAnalysis.Line2.Enabled, false
TestParameter, AutoAnalysis.Line2.Type, 1
TestParameter, AutoAnalysis.Line2.Fix, True
TestParameter, AutoAnalysis.Line2.YAxis, 0
TestParameter, AutoAnalysis.Line2.Point1.Type, 0
TestParameter, AutoAnalysis.Line2.Point1.XY.X, 
TestParameter, AutoAnalysis.Line2.Point1.XY.Y, 
TestParameter, AutoAnalysis.Line2.Point1.Data.Var, 
TestParameter, AutoAnalysis.Line2.Point1.Data.Condition, 
TestParameter, AutoAnalysis.Line2.Point1.Data.Start, false
TestParameter, AutoAnalysis.Line2.Point1.Data.StartVar, 
TestParameter, AutoAnalysis.Line2.Point1.Data.StartCondition, 
TestParameter, AutoAnalysis.Line2.Point2.Type, 0
TestParameter, AutoAnalysis.Line2.Point2.XY.X, 
TestParameter, AutoAnalysis.Line2.Point2.XY.Y, 
TestParameter, AutoAnalysis.Line2.Point2.Data.Var, 
TestParameter, AutoAnalysis.Line2.Point2.Data.Condition, 
TestParameter, AutoAnalysis.Line2.Point2.Data.Start, false
TestParameter, AutoAnalysis.Line2.Point2.Data.StartVar, 
TestParameter, AutoAnalysis.Line2.Point2.Data.StartCondition, 
TestParameter, AutoAnalysis.Line2.GradientExpr, 0
TestParameter, AutoAnalysis.Marker.Enabled, false
TestParameter, AutoAnalysis.Marker.Data.Var, 
TestParameter, AutoAnalysis.Marker.Data.Condition, 
TestParameter, AutoAnalysis.Marker.Data.Start, false
TestParameter, AutoAnalysis.Marker.Data.StartVar, 
TestParameter, AutoAnalysis.Marker.Data.StartCondition, 
MetaData, TestRecord.EntryPoint, true
MetaData, TestRecord.RecordTime, 03/12/2020 00:12:54
MetaData, TestRecord.TestTarget, 
MetaData, TestRecord.IterationIndex, 1
MetaData, TestRecord.Preservation, true
MetaData, TestRecord.Flag, 
MetaData, TestRecord.Remarks, 
MetaData, TestRecord.LinkKey, 29e49379-77f8-4b9b-a6df-834ada69c068
Dimension1, 70, 70, 70, 70
Dimension2, 1, 1, 1, 1
DataName, Vtop, Itop, Resistance, absItop
DataValue, 0, 6.6149999999999992E-09, 0, 6.6149999999999992E-09
DataValue, 0.05, 3.8068E-05, 1313.4391089629085, 3.8068E-05
DataValue, 0.1, 7.6462E-05, 1307.8391880934321, 7.6462E-05
DataValue, 0.15, 0.00011524, 1301.631377993752, 0.00011524
DataValue, 0.2, 0.00015454000000000002, 1294.1633234114145, 0.00015454000000000002
DataValue, 0.25, 0.00019458000000000002, 1284.8185836159933, 0.00019458000000000002
DataValue, 0.3, 0.00023538, 1274.534794799898, 0.00023538
DataValue, 0.35000000000000003, 0.00027684000000000004, 1264.2681693396908, 0.00027684000000000004
DataValue, 0.4, 0.00031936000000000003, 1252.5050100200401, 0.00031936000000000003
DataValue, 0.45, 0.00036256, 1241.1738746690203, 0.00036256
DataValue, 0.5, 0.00040654000000000005, 1229.891277611059, 0.00040654000000000005
DataValue, 0.55, 0.00045138000000000003, 1218.4855332535778, 0.00045138000000000003
DataValue, 0.6, 0.00049634000000000006, 1208.8487730184952, 0.00049634000000000006
DataValue, 0.65, 0.00054194000000000009, 1199.3947669483705, 0.00054194000000000009
DataValue, 0.70000000000000007, 0.00058838, 1189.707331996329, 0.00058838
DataValue, 0.75, 0.00063558000000000006, 1180.0245445105256, 0.00063558000000000006
DataValue, 0.8, 0.00068294, 1171.4059800275281, 0.00068294
DataValue, 0.85000000000000009, 0.00073084000000000007, 1163.0452629850583, 0.00073084000000000007
DataValue, 0.9, 0.00077968, 1154.3197209111429, 0.00077968
DataValue, 0.95000000000000007, 0.00082914, 1145.7654919555203, 0.00082914
DataValue, 1, 0.00087712, 1140.0948558920102, 0.00087712
DataValue, 1.05, 0.00092576000000000008, 1134.2032492222606, 0.00092576000000000008
DataValue, 1.1, 0.00097282000000000011, 1130.7333319627473, 0.00097282000000000011
DataValue, 1.1500000000000001, 0.0010179800000000001, 1129.6882060551288, 0.0010179800000000001
DataValue, 1.2, 0.00105582, 1136.5573677331363, 0.00105582
DataValue, 1.25, 0.0010987800000000002, 1137.6253663153677, 0.0010987800000000002
DataValue, 1.3, 0.0011411000000000001, 1139.251599333976, 0.0011411000000000001
DataValue, 1.35, 0.0011822, 1141.9387582473355, 0.0011822
DataValue, 1.4000000000000001, 0.0012274, 1140.6224539677369, 0.0012274
DataValue, 1.4500000000000002, 0.0012486, 1161.300656735544, 0.0012486
DataValue, 1.5, 0.0012168, 1232.7416173570018, 0.0012168
DataValue, 1.55, 0.0011858, 1307.1344240175408, 0.0011858
DataValue, 1.6, 0.0011754, 1361.23872724179, 0.0011754
DataValue, 1.6500000000000001, 0.0012058, 1368.3861336871789, 0.0012058
DataValue, 1.7000000000000002, 0.001284, 1323.98753894081, 0.001284
DataValue, 1.7000000000000002, 0.0012754, 1332.9151638701585, 0.0012754
DataValue, 1.6500000000000001, 0.0011844, 1393.1104356636274, 0.0011844
DataValue, 1.6, 0.0011166, 1432.9213684399069, 0.0011166
DataValue, 1.55, 0.0010548, 1469.4728858551384, 0.0010548
DataValue, 1.5, 0.00098720000000000014, 1519.4489465153968, 0.00098720000000000014
DataValue, 1.4500000000000002, 0.00091746, 1580.450373858261, 0.00091746
DataValue, 1.4000000000000001, 0.0008526, 1642.0361247947456, 0.0008526
DataValue, 1.35, 0.0007936000000000001, 1701.1088709677417, 0.0007936000000000001
DataValue, 1.3, 0.0007368600000000001, 1764.2428683874819, 0.0007368600000000001
DataValue, 1.25, 0.0006802, 1837.6947956483386, 0.0006802
DataValue, 1.2, 0.00062146, 1930.9368261835032, 0.00062146
DataValue, 1.1500000000000001, 0.00056836000000000007, 2023.3654725877964, 0.00056836000000000007
DataValue, 1.1, 0.0005172, 2126.8368136117556, 0.0005172
DataValue, 1.05, 0.00046976000000000006, 2235.183923705722, 0.00046976000000000006
DataValue, 1, 0.00042164000000000004, 2371.6914903709326, 0.00042164000000000004
DataValue, 0.95000000000000007, 0.00037534000000000005, 2531.0385250706026, 0.00037534000000000005
DataValue, 0.9, 0.00033122, 2717.2272205784675, 0.00033122
DataValue, 0.85000000000000009, 0.00028906, 2940.5659724624647, 0.00028906
DataValue, 0.8, 0.00025002, 3199.744020478362, 0.00025002
DataValue, 0.75, 0.00021352, 3512.5515174222555, 0.00021352
DataValue, 0.70000000000000007, 0.00017996, 3889.7532785063349, 0.00017996
DataValue, 0.65, 0.00014988000000000002, 4336.802775553776, 0.00014988000000000002
DataValue, 0.6, 0.00012340000000000002, 4862.2366288492694, 0.00012340000000000002
DataValue, 0.55, 0.00010066, 5463.9380091396788, 0.00010066
DataValue, 0.5, 8.3394000000000008E-05, 5995.6351775907133, 8.3394000000000008E-05
DataValue, 0.45, 6.7206E-05, 6695.83072939916, 6.7206E-05
DataValue, 0.4, 5.3726E-05, 7445.1848267133237, 5.3726E-05
DataValue, 0.35000000000000003, 4.2508E-05, 8233.744236379036, 4.2508E-05
DataValue, 0.3, 3.298E-05, 9096.4220739842331, 3.298E-05
DataValue, 0.25, 2.5002000000000002E-05, 9999.20006399488, 2.5002000000000002E-05
DataValue, 0.2, 1.824E-05, 10964.912280701754, 1.824E-05
DataValue, 0.15, 1.26E-05, 11904.761904761905, 1.26E-05
DataValue, 0.1, 7.8339000000000013E-06, 12765.034018815659, 7.8339000000000013E-06
DataValue, 0.05, 3.7621000000000004E-06, 13290.449483001514, 3.7621000000000004E-06
DataValue, 0, 3.2722000000000003E-10, 0, 3.2722000000000003E-10