
SetupTitle, RESET
PrimitiveTest, I/V Sweep
TestParameter, Context.MainFrame, B1500A
TestParameter, Channel.UnitType, SMU, SMU
TestParameter, Channel.Unit, SMU4:MP, SMU3:MP
TestParameter, Channel.IName, Itop, Ibot
TestParameter, Channel.VName, Vtop, Vbot
TestParameter, Channel.Mode, V, COMMON
TestParameter, Channel.Func, VAR1, CONST
TestParameter, Channel.Index, 
TestParameter, Channel.Time, 
TestParameter, Measurement.Port.Unit, SMU4:MP, SMU3:MP
TestParameter, Measurement.Port.SeriesResistor, NONE, NONE
TestParameter, Measurement.Port.Filter, ON, ON
TestParameter, Measurement.Port.OutputVoltageComparison, 0, 0
TestParameter, Measurement.Primary.Locus, Double
TestParameter, Measurement.Primary.Scale, LINEAR
TestParameter, Measurement.Primary.Start, 0
TestParameter, Measurement.Primary.Stop, 1.7000000000000002
TestParameter, Measurement.Primary.Step, 0.05
TestParameter, Measurement.Primary.Compliance, 0.002
TestParameter, Measurement.Primary.PowerCompliance, 0
TestParameter, Measurement.Aborting.Condition, CONTINUE AT ANY
TestParameter, Measurement.PostOutput.Value, START
TestParameter, Measurement.PostOutput.Retention, OFF
TestParameter, Measurement.Bias.Source, 0, 0
TestParameter, Measurement.Bias.Compliance, 0.002, 0.1
TestParameter, Measurement.Monitor.Unit, SMU4:MP, SMU3:MP
TestParameter, Measurement.Monitor.Adc, HR ADC, HR ADC
TestParameter, Measurement.Monitor.Measurement, Compliance Side, Compliance Side
TestParameter, Measurement.Monitor.RangingMode, LIMITED, LIMITED
TestParameter, Measurement.Monitor.RangeBoundary, 1nA, 1nA
TestParameter, Measurement.Monitor.RangeRating, BY FULL RANGE, BY FULL RANGE
TestParameter, Measurement.Monitor.RangeRatingCoeff, 50, 50
TestParameter, Measurement.Timing.Hold, 0
TestParameter, Measurement.Timing.Delay, 0
TestParameter, Measurement.Adc.HighSpeed.Mode, AUTO
TestParameter, Measurement.Adc.HighSpeed.Coeff, 1
TestParameter, Measurement.Adc.HighResolution.AutoZero, OFF
TestParameter, Measurement.Adc.HighResolution.Mode, AUTO
TestParameter, Measurement.Adc.HighResolution.Coeff, 6
TestParameter, Measurement.WaitTime.Source.Coeff, 1
TestParameter, Measurement.WaitTime.Source.Offset, 0
TestParameter, Measurement.WaitTime.Monitor.Coeff, 1
TestParameter, Measurement.WaitTime.Monitor.Offset, 0
TestParameter, Function.User.Name, Resistance, absItop
TestParameter, Function.User.Unit, ohm, A
TestParameter, Function.User.Definition, abs(Vtop/Itop), abs(Itop)
TestParameter, Output.Graph.Enabled, true
TestParameter, Output.Graph.AutoScaling, false
TestParameter, Output.Graph.XAxis.Data, Vtop
TestParameter, Output.Graph.XAxis.Scale, Linear
TestParameter, Output.Graph.XAxis.Left, 0
TestParameter, Output.Graph.XAxis.Right, 3.5
TestParameter, Output.Graph.XAxis.RunTimeAutoScale, true
TestParameter, Output.Graph.YAxis.Data, absItop
TestParameter, Output.Graph.YAxis.Scale, Linear
TestParameter, Output.Graph.YAxis.Bottom, 0
TestParameter, Output.Graph.YAxis.Top, 1
TestParameter, Output.Graph.YAxis.Group, 
TestParameter, Output.Graph.YAxis.RunTimeAutoScale, true
TestParameter, Output.List.Data, Vtop, Itop, Resistance
TestParameter, AutoAnalysis.Interpolation, false
TestParameter, AutoAnalysis.Line1.Enabled, false
TestParameter, AutoAnalysis.Line1.Type, 1
TestParameter, AutoAnalysis.Line1.Fix, True
TestParameter, AutoAnalysis.Line1.YAxis, 0
TestParameter, AutoAnalysis.Line1.Point1.Type, 0
TestParameter, AutoAnalysis.Line1.Point1.XY.X, 
TestParameter, AutoAnalysis.Line1.Point1.XY.Y, 
TestParameter, AutoAnalysis.Line1.Point1.Data.Var, 
TestParameter, AutoAnalysis.Line1.Point1.Data.Condition, 
TestParameter, AutoAnalysis.Line1.Point1.Data.Start, false
TestParameter, AutoAnalysis.Line1.Point1.Data.StartVar, 
TestParameter, AutoAnalysis.Line1.Point1.Data.StartCondition, 
TestParameter, AutoAnalysis.Line1.Point2.Type, 0
TestParameter, AutoAnalysis.Line1.Point2.XY.X, 
TestParameter, AutoAnalysis.Line1.Point2.XY.Y, 
TestParameter, AutoAnalysis.Line1.Point2.Data.Var, 
TestParameter, AutoAnalysis.Line1.Point2.Data.Condition, 
TestParameter, AutoAnalysis.Line1.Point2.Data.Start, false
TestParameter, AutoAnalysis.Line1.Point2.Data.StartVar, 
TestParameter, AutoAnalysis.Line1.Point2.Data.StartCondition, 
TestParameter, AutoAnalysis.Line1.GradientExpr, 0
TestParameter, AutoAnalysis.Line2.Enabled, false
TestParameter, AutoAnalysis.Line2.Type, 1
TestParameter, AutoAnalysis.Line2.Fix, True
TestParameter, AutoAnalysis.Line2.YAxis, 0
TestParameter, AutoAnalysis.Line2.Point1.Type, 0
TestParameter, AutoAnalysis.Line2.Point1.XY.X, 
TestParameter, AutoAnalysis.Line2.Point1.XY.Y, 
TestParameter, AutoAnalysis.Line2.Point1.Data.Var, 
TestParameter, AutoAnalysis.Line2.Point1.Data.Condition, 
TestParameter, AutoAnalysis.Line2.Point1.Data.Start, false
TestParameter, AutoAnalysis.Line2.Point1.Data.StartVar, 
TestParameter, AutoAnalysis.Line2.Point1.Data.StartCondition, 
TestParameter, AutoAnalysis.Line2.Point2.Type, 0
TestParameter, AutoAnalysis.Line2.Point2.XY.X, 
TestParameter, AutoAnalysis.Line2.Point2.XY.Y, 
TestParameter, AutoAnalysis.Line2.Point2.Data.Var, 
TestParameter, AutoAnalysis.Line2.Point2.Data.Condition, 
TestParameter, AutoAnalysis.Line2.Point2.Data.Start, false
TestParameter, AutoAnalysis.Line2.Point2.Data.StartVar, 
TestParameter, AutoAnalysis.Line2.Point2.Data.StartCondition, 
TestParameter, AutoAnalysis.Line2.GradientExpr, 0
TestParameter, AutoAnalysis.Marker.Enabled, false
TestParameter, AutoAnalysis.Marker.Data.Var, 
TestParameter, AutoAnalysis.Marker.Data.Condition, 
TestParameter, AutoAnalysis.Marker.Data.Start, false
TestParameter, AutoAnalysis.Marker.Data.StartVar, 
TestParameter, AutoAnalysis.Marker.Data.StartCondition, 
MetaData, TestRecord.EntryPoint, true
MetaData, TestRecord.RecordTime, 03/12/2020 00:16:30
MetaData, TestRecord.TestTarget, 
MetaData, TestRecord.IterationIndex, 1
MetaData, TestRecord.Preservation, true
MetaData, TestRecord.Flag, 
MetaData, TestRecord.Remarks, 
MetaData, TestRecord.LinkKey, 94add6cd-c2ad-4da7-a592-1aaa57ef0014
Dimension1, 70, 70, 70, 70
Dimension2, 1, 1, 1, 1
DataName, Vtop, Itop, Resistance, absItop
DataValue, 0, 9.9972E-09, 0, 9.9972E-09
DataValue, 0.05, 3.4856E-05, 1434.4732614184072, 3.4856E-05
DataValue, 0.1, 7.0358E-05, 1421.3024815941328, 7.0358E-05
DataValue, 0.15, 0.000107082, 1400.7956519302963, 0.000107082
DataValue, 0.2, 0.00014554000000000002, 1374.1926618111859, 0.00014554000000000002
DataValue, 0.25, 0.00018590000000000002, 1344.8090371167293, 0.00018590000000000002
DataValue, 0.3, 0.00022842, 1313.3701076963487, 0.00022842
DataValue, 0.35000000000000003, 0.0002731, 1281.5818381545221, 0.0002731
DataValue, 0.4, 0.00031984, 1250.6253126563283, 0.00031984
DataValue, 0.45, 0.00036842, 1221.4320612344607, 0.00036842
DataValue, 0.5, 0.00041896, 1193.4313538285278, 0.00041896
DataValue, 0.55, 0.00047096000000000003, 1167.8274163410906, 0.00047096000000000003
DataValue, 0.6, 0.00052456, 1143.8157694067409, 0.00052456
DataValue, 0.65, 0.00057962, 1121.424381491322, 0.00057962
DataValue, 0.70000000000000007, 0.00063636, 1100.0062857502044, 0.00063636
DataValue, 0.75, 0.00069338000000000006, 1081.6579653292565, 0.00069338000000000006
DataValue, 0.8, 0.00075206, 1063.74491396963, 0.00075206
DataValue, 0.85000000000000009, 0.0008109800000000001, 1048.1146267478853, 0.0008109800000000001
DataValue, 0.9, 0.00087146, 1032.7496385376264, 0.00087146
DataValue, 0.95000000000000007, 0.0009320000000000001, 1019.31330472103, 0.0009320000000000001
DataValue, 1, 0.00099174, 1008.3287958537519, 0.00099174
DataValue, 1.05, 0.0010479200000000001, 1001.9848843423162, 0.0010479200000000001
DataValue, 1.1, 0.00109954, 1000.4183567673756, 0.00109954
DataValue, 1.1500000000000001, 0.0011397, 1009.0374659998246, 0.0011397
DataValue, 1.2, 0.0011228, 1068.7566797292484, 0.0011228
DataValue, 1.25, 0.0011662, 1071.8573143543131, 0.0011662
DataValue, 1.3, 0.0011896, 1092.8043039677202, 0.0011896
DataValue, 1.35, 0.0012046000000000001, 1120.7039681221982, 0.0012046000000000001
DataValue, 1.4000000000000001, 0.0012214, 1146.2256427050925, 0.0012214
DataValue, 1.4500000000000002, 0.0012432, 1166.3449163449163, 0.0012432
DataValue, 1.5, 0.0012792, 1172.6078799249531, 0.0012792
DataValue, 1.55, 0.001324, 1170.6948640483383, 0.001324
DataValue, 1.6, 0.0013848, 1155.4015020219526, 0.0013848
DataValue, 1.6500000000000001, 0.001453, 1135.5815554026153, 0.001453
DataValue, 1.7000000000000002, 0.0015204, 1118.1268087345436, 0.0015204
DataValue, 1.7000000000000002, 0.0015192, 1119.0100052659295, 0.0015192
DataValue, 1.6500000000000001, 0.0013744, 1200.523864959255, 0.0013744
DataValue, 1.6, 0.0012618, 1268.0297987002696, 0.0012618
DataValue, 1.55, 0.0011694000000000001, 1325.4660509663074, 0.0011694000000000001
DataValue, 1.5, 0.0010788, 1390.4338153503893, 0.0010788
DataValue, 1.4500000000000002, 0.00098598, 1470.618065275158, 0.00098598
DataValue, 1.4000000000000001, 0.00090884000000000006, 1540.4251573434269, 0.00090884000000000006
DataValue, 1.35, 0.00083240000000000007, 1621.8164344065353, 0.00083240000000000007
DataValue, 1.3, 0.00075796, 1715.1300860203705, 0.00075796
DataValue, 1.25, 0.00068544, 1823.6461251167132, 0.00068544
DataValue, 1.2, 0.00061592, 1948.3049746720351, 0.00061592
DataValue, 1.1500000000000001, 0.00054998, 2090.9851267318813, 0.00054998
DataValue, 1.1, 0.00048860000000000006, 2251.3303315595576, 0.00048860000000000006
DataValue, 1.05, 0.00042898000000000003, 2447.6665578814864, 0.00042898000000000003
DataValue, 1, 0.00037366, 2676.2297275598139, 0.00037366
DataValue, 0.95000000000000007, 0.0003236, 2935.7231149567369, 0.0003236
DataValue, 0.9, 0.00027756, 3242.54215304799, 0.00027756
DataValue, 0.85000000000000009, 0.00023722, 3583.1717393137174, 0.00023722
DataValue, 0.8, 0.00020188, 3962.7501486031306, 0.00020188
DataValue, 0.75, 0.00017114000000000002, 4382.3770012854966, 0.00017114000000000002
DataValue, 0.70000000000000007, 0.00014462, 4840.2710551790906, 0.00014462
DataValue, 0.65, 0.00012212, 5322.633475270226, 0.00012212
DataValue, 0.6, 0.00010286, 5833.1713007971994, 0.00010286
DataValue, 0.55, 8.6446E-05, 6362.3533766744558, 8.6446E-05
DataValue, 0.5, 7.2386000000000008E-05, 6907.41303566988, 7.2386000000000008E-05
DataValue, 0.45, 6.0218000000000005E-05, 7472.8486499053433, 6.0218000000000005E-05
DataValue, 0.4, 4.9732000000000004E-05, 8043.1110753639505, 4.9732000000000004E-05
DataValue, 0.35000000000000003, 4.0568E-05, 8627.489647012424, 4.0568E-05
DataValue, 0.3, 3.2568000000000004E-05, 9211.4959469417827, 3.2568000000000004E-05
DataValue, 0.25, 2.5544E-05, 9787.03413717507, 2.5544E-05
DataValue, 0.2, 1.9346E-05, 10338.054378166029, 1.9346E-05
DataValue, 0.15, 1.3866E-05, 10817.827780181739, 1.3866E-05
DataValue, 0.1, 8.8928E-06, 11245.052177042102, 8.8928E-06
DataValue, 0.05, 4.3481000000000008E-06, 11499.275545640623, 4.3481000000000008E-06
DataValue, 0, 3.6667000000000004E-10, 0, 3.6667000000000004E-10