
SetupTitle, RESET
PrimitiveTest, I/V Sweep
TestParameter, Context.MainFrame, B1500A
TestParameter, Channel.UnitType, SMU, SMU
TestParameter, Channel.Unit, SMU4:MP, SMU3:MP
TestParameter, Channel.IName, Itop, Ibot
TestParameter, Channel.VName, Vtop, Vbot
TestParameter, Channel.Mode, V, COMMON
TestParameter, Channel.Func, VAR1, CONST
TestParameter, Channel.Index, 
TestParameter, Channel.Time, 
TestParameter, Measurement.Port.Unit, SMU4:MP, SMU3:MP
TestParameter, Measurement.Port.SeriesResistor, NONE, NONE
TestParameter, Measurement.Port.Filter, ON, ON
TestParameter, Measurement.Port.OutputVoltageComparison, 0, 0
TestParameter, Measurement.Primary.Locus, Double
TestParameter, Measurement.Primary.Scale, LINEAR
TestParameter, Measurement.Primary.Start, 0
TestParameter, Measurement.Primary.Stop, 1.7000000000000002
TestParameter, Measurement.Primary.Step, 0.05
TestParameter, Measurement.Primary.Compliance, 0.002
TestParameter, Measurement.Primary.PowerCompliance, 0
TestParameter, Measurement.Aborting.Condition, CONTINUE AT ANY
TestParameter, Measurement.PostOutput.Value, START
TestParameter, Measurement.PostOutput.Retention, OFF
TestParameter, Measurement.Bias.Source, 0, 0
TestParameter, Measurement.Bias.Compliance, 0.002, 0.1
TestParameter, Measurement.Monitor.Unit, SMU4:MP, SMU3:MP
TestParameter, Measurement.Monitor.Adc, HR ADC, HR ADC
TestParameter, Measurement.Monitor.Measurement, Compliance Side, Compliance Side
TestParameter, Measurement.Monitor.RangingMode, LIMITED, LIMITED
TestParameter, Measurement.Monitor.RangeBoundary, 1nA, 1nA
TestParameter, Measurement.Monitor.RangeRating, BY FULL RANGE, BY FULL RANGE
TestParameter, Measurement.Monitor.RangeRatingCoeff, 50, 50
TestParameter, Measurement.Timing.Hold, 0
TestParameter, Measurement.Timing.Delay, 0
TestParameter, Measurement.Adc.HighSpeed.Mode, AUTO
TestParameter, Measurement.Adc.HighSpeed.Coeff, 1
TestParameter, Measurement.Adc.HighResolution.AutoZero, OFF
TestParameter, Measurement.Adc.HighResolution.Mode, AUTO
TestParameter, Measurement.Adc.HighResolution.Coeff, 6
TestParameter, Measurement.WaitTime.Source.Coeff, 1
TestParameter, Measurement.WaitTime.Source.Offset, 0
TestParameter, Measurement.WaitTime.Monitor.Coeff, 1
TestParameter, Measurement.WaitTime.Monitor.Offset, 0
TestParameter, Function.User.Name, Resistance, absItop
TestParameter, Function.User.Unit, ohm, A
TestParameter, Function.User.Definition, abs(Vtop/Itop), abs(Itop)
TestParameter, Output.Graph.Enabled, true
TestParameter, Output.Graph.AutoScaling, false
TestParameter, Output.Graph.XAxis.Data, Vtop
TestParameter, Output.Graph.XAxis.Scale, Linear
TestParameter, Output.Graph.XAxis.Left, 0
TestParameter, Output.Graph.XAxis.Right, 3.5
TestParameter, Output.Graph.XAxis.RunTimeAutoScale, true
TestParameter, Output.Graph.YAxis.Data, absItop
TestParameter, Output.Graph.YAxis.Scale, Linear
TestParameter, Output.Graph.YAxis.Bottom, 0
TestParameter, Output.Graph.YAxis.Top, 1
TestParameter, Output.Graph.YAxis.Group, 
TestParameter, Output.Graph.YAxis.RunTimeAutoScale, true
TestParameter, Output.List.Data, Vtop, Itop, Resistance
TestParameter, AutoAnalysis.Interpolation, false
TestParameter, AutoAnalysis.Line1.Enabled, false
TestParameter, AutoAnalysis.Line1.Type, 1
TestParameter, AutoAnalysis.Line1.Fix, True
TestParameter, AutoAnalysis.Line1.YAxis, 0
TestParameter, AutoAnalysis.Line1.Point1.Type, 0
TestParameter, AutoAnalysis.Line1.Point1.XY.X, 
TestParameter, AutoAnalysis.Line1.Point1.XY.Y, 
TestParameter, AutoAnalysis.Line1.Point1.Data.Var, 
TestParameter, AutoAnalysis.Line1.Point1.Data.Condition, 
TestParameter, AutoAnalysis.Line1.Point1.Data.Start, false
TestParameter, AutoAnalysis.Line1.Point1.Data.StartVar, 
TestParameter, AutoAnalysis.Line1.Point1.Data.StartCondition, 
TestParameter, AutoAnalysis.Line1.Point2.Type, 0
TestParameter, AutoAnalysis.Line1.Point2.XY.X, 
TestParameter, AutoAnalysis.Line1.Point2.XY.Y, 
TestParameter, AutoAnalysis.Line1.Point2.Data.Var, 
TestParameter, AutoAnalysis.Line1.Point2.Data.Condition, 
TestParameter, AutoAnalysis.Line1.Point2.Data.Start, false
TestParameter, AutoAnalysis.Line1.Point2.Data.StartVar, 
TestParameter, AutoAnalysis.Line1.Point2.Data.StartCondition, 
TestParameter, AutoAnalysis.Line1.GradientExpr, 0
TestParameter, AutoAnalysis.Line2.Enabled, false
TestParameter, AutoAnalysis.Line2.Type, 1
TestParameter, AutoAnalysis.Line2.Fix, True
TestParameter, AutoAnalysis.Line2.YAxis, 0
TestParameter, AutoAnalysis.Line2.Point1.Type, 0
TestParameter, AutoAnalysis.Line2.Point1.XY.X, 
TestParameter, AutoAnalysis.Line2.Point1.XY.Y, 
TestParameter, AutoAnalysis.Line2.Point1.Data.Var, 
TestParameter, AutoAnalysis.Line2.Point1.Data.Condition, 
TestParameter, AutoAnalysis.Line2.Point1.Data.Start, false
TestParameter, AutoAnalysis.Line2.Point1.Data.StartVar, 
TestParameter, AutoAnalysis.Line2.Point1.Data.StartCondition, 
TestParameter, AutoAnalysis.Line2.Point2.Type, 0
TestParameter, AutoAnalysis.Line2.Point2.XY.X, 
TestParameter, AutoAnalysis.Line2.Point2.XY.Y, 
TestParameter, AutoAnalysis.Line2.Point2.Data.Var, 
TestParameter, AutoAnalysis.Line2.Point2.Data.Condition, 
TestParameter, AutoAnalysis.Line2.Point2.Data.Start, false
TestParameter, AutoAnalysis.Line2.Point2.Data.StartVar, 
TestParameter, AutoAnalysis.Line2.Point2.Data.StartCondition, 
TestParameter, AutoAnalysis.Line2.GradientExpr, 0
TestParameter, AutoAnalysis.Marker.Enabled, false
TestParameter, AutoAnalysis.Marker.Data.Var, 
TestParameter, AutoAnalysis.Marker.Data.Condition, 
TestParameter, AutoAnalysis.Marker.Data.Start, false
TestParameter, AutoAnalysis.Marker.Data.StartVar, 
TestParameter, AutoAnalysis.Marker.Data.StartCondition, 
MetaData, TestRecord.EntryPoint, true
MetaData, TestRecord.RecordTime, 03/12/2020 00:17:07
MetaData, TestRecord.TestTarget, 
MetaData, TestRecord.IterationIndex, 1
MetaData, TestRecord.Preservation, true
MetaData, TestRecord.Flag, 
MetaData, TestRecord.Remarks, 
MetaData, TestRecord.LinkKey, d32cfa97-a0ce-4c4e-83a9-3eb527c428dd
Dimension1, 70, 70, 70, 70
Dimension2, 1, 1, 1, 1
DataName, Vtop, Itop, Resistance, absItop
DataValue, 0, 1.458E-09, 0, 1.458E-09
DataValue, 0.05, 3.5312000000000003E-05, 1415.9492523787947, 3.5312000000000003E-05
DataValue, 0.1, 7.1208E-05, 1404.3365913942255, 7.1208E-05
DataValue, 0.15, 0.000107976, 1389.1975994665481, 0.000107976
DataValue, 0.2, 0.00014616, 1368.3634373289547, 0.00014616
DataValue, 0.25, 0.00018576, 1345.8225667527993, 0.00018576
DataValue, 0.3, 0.00022714000000000002, 1320.7713304569868, 0.00022714000000000002
DataValue, 0.35000000000000003, 0.00027014000000000004, 1295.6244910046642, 0.00027014000000000004
DataValue, 0.4, 0.00031482, 1270.5673083031575, 0.00031482
DataValue, 0.45, 0.00036104, 1246.3992909372921, 0.00036104
DataValue, 0.5, 0.00040864000000000004, 1223.5708692247454, 0.00040864000000000004
DataValue, 0.55, 0.00045766000000000003, 1201.7655027749859, 0.00045766000000000003
DataValue, 0.6, 0.00050742000000000007, 1182.4524062906467, 0.00050742000000000007
DataValue, 0.65, 0.00055852000000000007, 1163.7900164721048, 0.00055852000000000007
DataValue, 0.70000000000000007, 0.00061022000000000008, 1147.1272655763494, 0.00061022000000000008
DataValue, 0.75, 0.00066316000000000009, 1130.9487906387597, 0.00066316000000000009
DataValue, 0.8, 0.0007169, 1115.9157483609988, 0.0007169
DataValue, 0.85000000000000009, 0.00077100000000000009, 1102.4643320363164, 0.00077100000000000009
DataValue, 0.9, 0.00082570000000000007, 1089.984255782972, 0.00082570000000000007
DataValue, 0.95000000000000007, 0.0008807000000000001, 1078.6874077438401, 0.0008807000000000001
DataValue, 1, 0.00093714, 1067.0764240134879, 0.00093714
DataValue, 1.05, 0.00099172, 1058.7665873432018, 0.00099172
DataValue, 1.1, 0.00104556, 1052.0677914227783, 0.00104556
DataValue, 1.1500000000000001, 0.00109366, 1051.5150960993362, 0.00109366
DataValue, 1.2, 0.00113476, 1057.4923331805844, 0.00113476
DataValue, 1.25, 0.0010994, 1136.9838093505548, 0.0010994
DataValue, 1.3, 0.0011294, 1151.0536568089251, 0.0011294
DataValue, 1.35, 0.001146, 1178.0104712041884, 0.001146
DataValue, 1.4000000000000001, 0.0011622, 1204.6119428669765, 0.0011622
DataValue, 1.4500000000000002, 0.0011826, 1226.1119567055641, 0.0011826
DataValue, 1.5, 0.0012124, 1237.2154404486969, 0.0012124
DataValue, 1.55, 0.0012478, 1242.1862477961211, 0.0012478
DataValue, 1.6, 0.0012946000000000001, 1235.9029816159432, 0.0012946000000000001
DataValue, 1.6500000000000001, 0.0013572, 1215.738284703802, 0.0013572
DataValue, 1.7000000000000002, 0.0014372, 1182.8555524631229, 0.0014372
DataValue, 1.7000000000000002, 0.0014356, 1184.1738645862358, 0.0014356
DataValue, 1.6500000000000001, 0.0013106, 1258.9653593773844, 0.0013106
DataValue, 1.6, 0.0012054, 1327.3602123776341, 0.0012054
DataValue, 1.55, 0.0011162, 1388.6400286686976, 0.0011162
DataValue, 1.5, 0.0010282, 1458.8601439408676, 0.0010282
DataValue, 1.4500000000000002, 0.00094228000000000009, 1538.8207326909198, 0.00094228000000000009
DataValue, 1.4000000000000001, 0.00086092, 1626.1673558518794, 0.00086092
DataValue, 1.35, 0.00078414, 1721.6313413421074, 0.00078414
DataValue, 1.3, 0.00071206, 1825.6888464455242, 0.00071206
DataValue, 1.25, 0.00064310000000000007, 1943.7101539418441, 0.00064310000000000007
DataValue, 1.2, 0.00057552, 2085.0708924103419, 0.00057552
DataValue, 1.1500000000000001, 0.00051138000000000008, 2248.8169267472331, 0.00051138000000000008
DataValue, 1.1, 0.00045018, 2443.4670576213962, 0.00045018
DataValue, 1.05, 0.00039222000000000004, 2677.0689918923053, 0.00039222000000000004
DataValue, 1, 0.00033928, 2947.4180617778825, 0.00033928
DataValue, 0.95000000000000007, 0.00029044000000000004, 3270.8993251618231, 0.00029044000000000004
DataValue, 0.9, 0.0002479, 3630.4961678096006, 0.0002479
DataValue, 0.85000000000000009, 0.00021068, 4034.55477501424, 0.00021068
DataValue, 0.8, 0.00017886, 4472.7720004472776, 0.00017886
DataValue, 0.75, 0.00015152, 4949.8416050686374, 0.00015152
DataValue, 0.70000000000000007, 0.00012856, 5444.928438083386, 0.00012856
DataValue, 0.65, 0.00010896, 5965.4919236417036, 0.00010896
DataValue, 0.6, 9.211E-05, 6513.9507111062858, 9.211E-05
DataValue, 0.55, 7.7792E-05, 7070.1357466063355, 7.7792E-05
DataValue, 0.5, 6.553E-05, 7630.0930871356622, 6.553E-05
DataValue, 0.45, 5.4906E-05, 8195.8255928313847, 5.4906E-05
DataValue, 0.4, 4.5586E-05, 8774.62378800509, 4.5586E-05
DataValue, 0.35000000000000003, 3.7420000000000004E-05, 9353.28701229289, 3.7420000000000004E-05
DataValue, 0.3, 3.0232E-05, 9923.2601217253232, 3.0232E-05
DataValue, 0.25, 2.3832E-05, 10490.097348103389, 2.3832E-05
DataValue, 0.2, 1.8144E-05, 11022.927689594357, 1.8144E-05
DataValue, 0.15, 1.3034000000000001E-05, 11508.362743593676, 1.3034000000000001E-05
DataValue, 0.1, 8.3952E-06, 11911.5685153421, 8.3952E-06
DataValue, 0.05, 4.1153E-06, 12149.782518892911, 4.1153E-06
DataValue, 0, 1.5654E-10, 0, 1.5654E-10