
SetupTitle, RESET
PrimitiveTest, I/V Sweep
TestParameter, Context.MainFrame, B1500A
TestParameter, Channel.UnitType, SMU, SMU
TestParameter, Channel.Unit, SMU4:MP, SMU3:MP
TestParameter, Channel.IName, Itop, Ibot
TestParameter, Channel.VName, Vtop, Vbot
TestParameter, Channel.Mode, V, COMMON
TestParameter, Channel.Func, VAR1, CONST
TestParameter, Channel.Index, 
TestParameter, Channel.Time, 
TestParameter, Measurement.Port.Unit, SMU4:MP, SMU3:MP
TestParameter, Measurement.Port.SeriesResistor, NONE, NONE
TestParameter, Measurement.Port.Filter, ON, ON
TestParameter, Measurement.Port.OutputVoltageComparison, 0, 0
TestParameter, Measurement.Primary.Locus, Double
TestParameter, Measurement.Primary.Scale, LINEAR
TestParameter, Measurement.Primary.Start, 0
TestParameter, Measurement.Primary.Stop, 1.7000000000000002
TestParameter, Measurement.Primary.Step, 0.05
TestParameter, Measurement.Primary.Compliance, 0.002
TestParameter, Measurement.Primary.PowerCompliance, 0
TestParameter, Measurement.Aborting.Condition, CONTINUE AT ANY
TestParameter, Measurement.PostOutput.Value, START
TestParameter, Measurement.PostOutput.Retention, OFF
TestParameter, Measurement.Bias.Source, 0, 0
TestParameter, Measurement.Bias.Compliance, 0.002, 0.1
TestParameter, Measurement.Monitor.Unit, SMU4:MP, SMU3:MP
TestParameter, Measurement.Monitor.Adc, HR ADC, HR ADC
TestParameter, Measurement.Monitor.Measurement, Compliance Side, Compliance Side
TestParameter, Measurement.Monitor.RangingMode, LIMITED, LIMITED
TestParameter, Measurement.Monitor.RangeBoundary, 1nA, 1nA
TestParameter, Measurement.Monitor.RangeRating, BY FULL RANGE, BY FULL RANGE
TestParameter, Measurement.Monitor.RangeRatingCoeff, 50, 50
TestParameter, Measurement.Timing.Hold, 0
TestParameter, Measurement.Timing.Delay, 0
TestParameter, Measurement.Adc.HighSpeed.Mode, AUTO
TestParameter, Measurement.Adc.HighSpeed.Coeff, 1
TestParameter, Measurement.Adc.HighResolution.AutoZero, OFF
TestParameter, Measurement.Adc.HighResolution.Mode, AUTO
TestParameter, Measurement.Adc.HighResolution.Coeff, 6
TestParameter, Measurement.WaitTime.Source.Coeff, 1
TestParameter, Measurement.WaitTime.Source.Offset, 0
TestParameter, Measurement.WaitTime.Monitor.Coeff, 1
TestParameter, Measurement.WaitTime.Monitor.Offset, 0
TestParameter, Function.User.Name, Resistance, absItop
TestParameter, Function.User.Unit, ohm, A
TestParameter, Function.User.Definition, abs(Vtop/Itop), abs(Itop)
TestParameter, Output.Graph.Enabled, true
TestParameter, Output.Graph.AutoScaling, false
TestParameter, Output.Graph.XAxis.Data, Vtop
TestParameter, Output.Graph.XAxis.Scale, Linear
TestParameter, Output.Graph.XAxis.Left, 0
TestParameter, Output.Graph.XAxis.Right, 3.5
TestParameter, Output.Graph.XAxis.RunTimeAutoScale, true
TestParameter, Output.Graph.YAxis.Data, absItop
TestParameter, Output.Graph.YAxis.Scale, Linear
TestParameter, Output.Graph.YAxis.Bottom, 0
TestParameter, Output.Graph.YAxis.Top, 1
TestParameter, Output.Graph.YAxis.Group, 
TestParameter, Output.Graph.YAxis.RunTimeAutoScale, true
TestParameter, Output.List.Data, Vtop, Itop, Resistance
TestParameter, AutoAnalysis.Interpolation, false
TestParameter, AutoAnalysis.Line1.Enabled, false
TestParameter, AutoAnalysis.Line1.Type, 1
TestParameter, AutoAnalysis.Line1.Fix, True
TestParameter, AutoAnalysis.Line1.YAxis, 0
TestParameter, AutoAnalysis.Line1.Point1.Type, 0
TestParameter, AutoAnalysis.Line1.Point1.XY.X, 
TestParameter, AutoAnalysis.Line1.Point1.XY.Y, 
TestParameter, AutoAnalysis.Line1.Point1.Data.Var, 
TestParameter, AutoAnalysis.Line1.Point1.Data.Condition, 
TestParameter, AutoAnalysis.Line1.Point1.Data.Start, false
TestParameter, AutoAnalysis.Line1.Point1.Data.StartVar, 
TestParameter, AutoAnalysis.Line1.Point1.Data.StartCondition, 
TestParameter, AutoAnalysis.Line1.Point2.Type, 0
TestParameter, AutoAnalysis.Line1.Point2.XY.X, 
TestParameter, AutoAnalysis.Line1.Point2.XY.Y, 
TestParameter, AutoAnalysis.Line1.Point2.Data.Var, 
TestParameter, AutoAnalysis.Line1.Point2.Data.Condition, 
TestParameter, AutoAnalysis.Line1.Point2.Data.Start, false
TestParameter, AutoAnalysis.Line1.Point2.Data.StartVar, 
TestParameter, AutoAnalysis.Line1.Point2.Data.StartCondition, 
TestParameter, AutoAnalysis.Line1.GradientExpr, 0
TestParameter, AutoAnalysis.Line2.Enabled, false
TestParameter, AutoAnalysis.Line2.Type, 1
TestParameter, AutoAnalysis.Line2.Fix, True
TestParameter, AutoAnalysis.Line2.YAxis, 0
TestParameter, AutoAnalysis.Line2.Point1.Type, 0
TestParameter, AutoAnalysis.Line2.Point1.XY.X, 
TestParameter, AutoAnalysis.Line2.Point1.XY.Y, 
TestParameter, AutoAnalysis.Line2.Point1.Data.Var, 
TestParameter, AutoAnalysis.Line2.Point1.Data.Condition, 
TestParameter, AutoAnalysis.Line2.Point1.Data.Start, false
TestParameter, AutoAnalysis.Line2.Point1.Data.StartVar, 
TestParameter, AutoAnalysis.Line2.Point1.Data.StartCondition, 
TestParameter, AutoAnalysis.Line2.Point2.Type, 0
TestParameter, AutoAnalysis.Line2.Point2.XY.X, 
TestParameter, AutoAnalysis.Line2.Point2.XY.Y, 
TestParameter, AutoAnalysis.Line2.Point2.Data.Var, 
TestParameter, AutoAnalysis.Line2.Point2.Data.Condition, 
TestParameter, AutoAnalysis.Line2.Point2.Data.Start, false
TestParameter, AutoAnalysis.Line2.Point2.Data.StartVar, 
TestParameter, AutoAnalysis.Line2.Point2.Data.StartCondition, 
TestParameter, AutoAnalysis.Line2.GradientExpr, 0
TestParameter, AutoAnalysis.Marker.Enabled, false
TestParameter, AutoAnalysis.Marker.Data.Var, 
TestParameter, AutoAnalysis.Marker.Data.Condition, 
TestParameter, AutoAnalysis.Marker.Data.Start, false
TestParameter, AutoAnalysis.Marker.Data.StartVar, 
TestParameter, AutoAnalysis.Marker.Data.StartCondition, 
MetaData, TestRecord.EntryPoint, true
MetaData, TestRecord.RecordTime, 03/12/2020 00:11:54
MetaData, TestRecord.TestTarget, 
MetaData, TestRecord.IterationIndex, 1
MetaData, TestRecord.Preservation, true
MetaData, TestRecord.Flag, 
MetaData, TestRecord.Remarks, 
MetaData, TestRecord.LinkKey, dfd59eb5-2d55-4837-974b-74b6ff0fbc1b
Dimension1, 70, 70, 70, 70
Dimension2, 1, 1, 1, 1
DataName, Vtop, Itop, Resistance, absItop
DataValue, 0, 3.4928E-10, 0, 3.4928E-10
DataValue, 0.05, 5.2600000000000005E-06, 9505.7034220532314, 5.2600000000000005E-06
DataValue, 0.1, 1.08033E-05, 9256.4309053715078, 1.08033E-05
DataValue, 0.15, 1.6946E-05, 8851.646406231559, 1.6946E-05
DataValue, 0.2, 2.3658E-05, 8453.7999830924, 2.3658E-05
DataValue, 0.25, 3.1678000000000004E-05, 7891.9123682050622, 3.1678000000000004E-05
DataValue, 0.3, 3.8528E-05, 7786.5448504983387, 3.8528E-05
DataValue, 0.35000000000000003, 4.5058E-05, 7767.7659905011324, 4.5058E-05
DataValue, 0.4, 5.2806E-05, 7574.8967920312089, 5.2806E-05
DataValue, 0.45, 6.4528E-05, 6973.7168361021568, 6.4528E-05
DataValue, 0.5, 6.8906000000000007E-05, 7256.262154239108, 6.8906000000000007E-05
DataValue, 0.55, 8.2128E-05, 6696.8634326904348, 8.2128E-05
DataValue, 0.6, 9.732000000000001E-05, 6165.2281134401965, 9.732000000000001E-05
DataValue, 0.65, 0.00010228, 6355.103637074697, 0.00010228
DataValue, 0.70000000000000007, 0.0001247, 5613.4723336006418, 0.0001247
DataValue, 0.75, 0.00014276000000000002, 5253.5724292518908, 0.00014276000000000002
DataValue, 0.8, 0.00016942000000000001, 4721.992680911344, 0.00016942000000000001
DataValue, 0.85000000000000009, 0.0001878, 4526.0915867944623, 0.0001878
DataValue, 0.9, 0.00019696, 4569.4557270511777, 0.00019696
DataValue, 0.95000000000000007, 0.00021196000000000002, 4481.97773164748, 0.00021196000000000002
DataValue, 1, 0.00025422000000000004, 3933.6008181889697, 0.00025422000000000004
DataValue, 1.05, 0.00032178, 3263.0990117471565, 0.00032178
DataValue, 1.1, 0.00036088, 3048.1046331190428, 0.00036088
DataValue, 1.1500000000000001, 0.00050766000000000006, 2265.2956703305363, 0.00050766000000000006
DataValue, 1.2, 0.00058828, 2039.8449717821443, 0.00058828
DataValue, 1.25, 0.00060868, 2053.624236051784, 0.00060868
DataValue, 1.3, 0.0007033, 1848.4288354898336, 0.0007033
DataValue, 1.35, 0.00090548000000000007, 1490.9219419534391, 0.00090548000000000007
DataValue, 1.4000000000000001, 0.00099536, 1406.52628194824, 0.00099536
DataValue, 1.4500000000000002, 0.00103086, 1406.5925537900396, 0.00103086
DataValue, 1.5, 0.00106224, 1412.1102575689108, 0.00106224
DataValue, 1.55, 0.00106482, 1455.645085554366, 0.00106482
DataValue, 1.6, 0.0011251400000000002, 1422.0452565902908, 0.0011251400000000002
DataValue, 1.6500000000000001, 0.0011702, 1410.0153819859854, 0.0011702
DataValue, 1.7000000000000002, 0.0012358, 1375.6271241301183, 0.0012358
DataValue, 1.7000000000000002, 0.0012384, 1372.7390180878556, 0.0012384
DataValue, 1.6500000000000001, 0.0011740000000000001, 1405.4514480408859, 0.0011740000000000001
DataValue, 1.6, 0.001115, 1434.9775784753363, 0.001115
DataValue, 1.55, 0.0010402, 1490.0980580657565, 0.0010402
DataValue, 1.5, 0.00097140000000000008, 1544.1630636195182, 0.00097140000000000008
DataValue, 1.4500000000000002, 0.00090302, 1605.7230183163165, 0.00090302
DataValue, 1.4000000000000001, 0.00085924, 1629.3468646711049, 0.00085924
DataValue, 1.35, 0.00078228, 1725.7248044178557, 0.00078228
DataValue, 1.3, 0.00071238000000000009, 1824.8687498245317, 0.00071238000000000009
DataValue, 1.25, 0.00065270000000000009, 1915.1218017465908, 0.00065270000000000009
DataValue, 1.2, 0.00059694, 2010.2522866619759, 0.00059694
DataValue, 1.1500000000000001, 0.00054214, 2121.2233002545472, 0.00054214
DataValue, 1.1, 0.00048836000000000007, 2252.4367270046687, 0.00048836000000000007
DataValue, 1.05, 0.00043588000000000003, 2408.919886207213, 0.00043588000000000003
DataValue, 1, 0.00038618, 2589.4660521000569, 0.00038618
DataValue, 0.95000000000000007, 0.00033704000000000004, 2818.6565392831708, 0.00033704000000000004
DataValue, 0.9, 0.00028272000000000003, 3183.3616298811544, 0.00028272000000000003
DataValue, 0.85000000000000009, 0.00024182, 3515.0111653295844, 0.00024182
DataValue, 0.8, 0.00020758000000000002, 3853.9358319683975, 0.00020758000000000002
DataValue, 0.75, 0.00017364, 4319.2812715964064, 0.00017364
DataValue, 0.70000000000000007, 0.00014452, 4843.6202601716031, 0.00014452
DataValue, 0.65, 0.00011964000000000001, 5432.9655633567363, 0.00011964000000000001
DataValue, 0.6, 9.4168E-05, 6371.5911987086911, 9.4168E-05
DataValue, 0.55, 7.6726E-05, 7168.3653520319067, 7.6726E-05
DataValue, 0.5, 6.2076E-05, 8054.6426960500021, 6.2076E-05
DataValue, 0.45, 4.9864E-05, 9024.5467672068025, 4.9864E-05
DataValue, 0.4, 4.0192000000000004E-05, 9952.2292993630563, 4.0192000000000004E-05
DataValue, 0.35000000000000003, 3.2016E-05, 10932.033983008498, 3.2016E-05
DataValue, 0.3, 2.5216E-05, 11897.208121827411, 2.5216E-05
DataValue, 0.25, 1.9226000000000002E-05, 13003.224799750336, 1.9226000000000002E-05
DataValue, 0.2, 1.4066E-05, 14218.683349921797, 1.4066E-05
DataValue, 0.15, 9.6813000000000016E-06, 15493.786991416439, 9.6813000000000016E-06
DataValue, 0.1, 5.9805000000000006E-06, 16721.00994900092, 5.9805000000000006E-06
DataValue, 0.05, 2.8476000000000005E-06, 17558.645877229945, 2.8476000000000005E-06
DataValue, 0, 4.5574E-10, 0, 4.5574E-10