
SetupTitle, RESET
PrimitiveTest, I/V Sweep
TestParameter, Context.MainFrame, B1500A
TestParameter, Channel.UnitType, SMU, SMU
TestParameter, Channel.Unit, SMU4:MP, SMU3:MP
TestParameter, Channel.IName, Itop, Ibot
TestParameter, Channel.VName, Vtop, Vbot
TestParameter, Channel.Mode, V, COMMON
TestParameter, Channel.Func, VAR1, CONST
TestParameter, Channel.Index, 
TestParameter, Channel.Time, 
TestParameter, Measurement.Port.Unit, SMU4:MP, SMU3:MP
TestParameter, Measurement.Port.SeriesResistor, NONE, NONE
TestParameter, Measurement.Port.Filter, ON, ON
TestParameter, Measurement.Port.OutputVoltageComparison, 0, 0
TestParameter, Measurement.Primary.Locus, Double
TestParameter, Measurement.Primary.Scale, LINEAR
TestParameter, Measurement.Primary.Start, 0
TestParameter, Measurement.Primary.Stop, 1.7000000000000002
TestParameter, Measurement.Primary.Step, 0.05
TestParameter, Measurement.Primary.Compliance, 0.002
TestParameter, Measurement.Primary.PowerCompliance, 0
TestParameter, Measurement.Aborting.Condition, CONTINUE AT ANY
TestParameter, Measurement.PostOutput.Value, START
TestParameter, Measurement.PostOutput.Retention, OFF
TestParameter, Measurement.Bias.Source, 0, 0
TestParameter, Measurement.Bias.Compliance, 0.002, 0.1
TestParameter, Measurement.Monitor.Unit, SMU4:MP, SMU3:MP
TestParameter, Measurement.Monitor.Adc, HR ADC, HR ADC
TestParameter, Measurement.Monitor.Measurement, Compliance Side, Compliance Side
TestParameter, Measurement.Monitor.RangingMode, LIMITED, LIMITED
TestParameter, Measurement.Monitor.RangeBoundary, 1nA, 1nA
TestParameter, Measurement.Monitor.RangeRating, BY FULL RANGE, BY FULL RANGE
TestParameter, Measurement.Monitor.RangeRatingCoeff, 50, 50
TestParameter, Measurement.Timing.Hold, 0
TestParameter, Measurement.Timing.Delay, 0
TestParameter, Measurement.Adc.HighSpeed.Mode, AUTO
TestParameter, Measurement.Adc.HighSpeed.Coeff, 1
TestParameter, Measurement.Adc.HighResolution.AutoZero, OFF
TestParameter, Measurement.Adc.HighResolution.Mode, AUTO
TestParameter, Measurement.Adc.HighResolution.Coeff, 6
TestParameter, Measurement.WaitTime.Source.Coeff, 1
TestParameter, Measurement.WaitTime.Source.Offset, 0
TestParameter, Measurement.WaitTime.Monitor.Coeff, 1
TestParameter, Measurement.WaitTime.Monitor.Offset, 0
TestParameter, Function.User.Name, Resistance, absItop
TestParameter, Function.User.Unit, ohm, A
TestParameter, Function.User.Definition, abs(Vtop/Itop), abs(Itop)
TestParameter, Output.Graph.Enabled, true
TestParameter, Output.Graph.AutoScaling, false
TestParameter, Output.Graph.XAxis.Data, Vtop
TestParameter, Output.Graph.XAxis.Scale, Linear
TestParameter, Output.Graph.XAxis.Left, 0
TestParameter, Output.Graph.XAxis.Right, 3.5
TestParameter, Output.Graph.XAxis.RunTimeAutoScale, true
TestParameter, Output.Graph.YAxis.Data, absItop
TestParameter, Output.Graph.YAxis.Scale, Linear
TestParameter, Output.Graph.YAxis.Bottom, 0
TestParameter, Output.Graph.YAxis.Top, 1
TestParameter, Output.Graph.YAxis.Group, 
TestParameter, Output.Graph.YAxis.RunTimeAutoScale, true
TestParameter, Output.List.Data, Vtop, Itop, Resistance
TestParameter, AutoAnalysis.Interpolation, false
TestParameter, AutoAnalysis.Line1.Enabled, false
TestParameter, AutoAnalysis.Line1.Type, 1
TestParameter, AutoAnalysis.Line1.Fix, True
TestParameter, AutoAnalysis.Line1.YAxis, 0
TestParameter, AutoAnalysis.Line1.Point1.Type, 0
TestParameter, AutoAnalysis.Line1.Point1.XY.X, 
TestParameter, AutoAnalysis.Line1.Point1.XY.Y, 
TestParameter, AutoAnalysis.Line1.Point1.Data.Var, 
TestParameter, AutoAnalysis.Line1.Point1.Data.Condition, 
TestParameter, AutoAnalysis.Line1.Point1.Data.Start, false
TestParameter, AutoAnalysis.Line1.Point1.Data.StartVar, 
TestParameter, AutoAnalysis.Line1.Point1.Data.StartCondition, 
TestParameter, AutoAnalysis.Line1.Point2.Type, 0
TestParameter, AutoAnalysis.Line1.Point2.XY.X, 
TestParameter, AutoAnalysis.Line1.Point2.XY.Y, 
TestParameter, AutoAnalysis.Line1.Point2.Data.Var, 
TestParameter, AutoAnalysis.Line1.Point2.Data.Condition, 
TestParameter, AutoAnalysis.Line1.Point2.Data.Start, false
TestParameter, AutoAnalysis.Line1.Point2.Data.StartVar, 
TestParameter, AutoAnalysis.Line1.Point2.Data.StartCondition, 
TestParameter, AutoAnalysis.Line1.GradientExpr, 0
TestParameter, AutoAnalysis.Line2.Enabled, false
TestParameter, AutoAnalysis.Line2.Type, 1
TestParameter, AutoAnalysis.Line2.Fix, True
TestParameter, AutoAnalysis.Line2.YAxis, 0
TestParameter, AutoAnalysis.Line2.Point1.Type, 0
TestParameter, AutoAnalysis.Line2.Point1.XY.X, 
TestParameter, AutoAnalysis.Line2.Point1.XY.Y, 
TestParameter, AutoAnalysis.Line2.Point1.Data.Var, 
TestParameter, AutoAnalysis.Line2.Point1.Data.Condition, 
TestParameter, AutoAnalysis.Line2.Point1.Data.Start, false
TestParameter, AutoAnalysis.Line2.Point1.Data.StartVar, 
TestParameter, AutoAnalysis.Line2.Point1.Data.StartCondition, 
TestParameter, AutoAnalysis.Line2.Point2.Type, 0
TestParameter, AutoAnalysis.Line2.Point2.XY.X, 
TestParameter, AutoAnalysis.Line2.Point2.XY.Y, 
TestParameter, AutoAnalysis.Line2.Point2.Data.Var, 
TestParameter, AutoAnalysis.Line2.Point2.Data.Condition, 
TestParameter, AutoAnalysis.Line2.Point2.Data.Start, false
TestParameter, AutoAnalysis.Line2.Point2.Data.StartVar, 
TestParameter, AutoAnalysis.Line2.Point2.Data.StartCondition, 
TestParameter, AutoAnalysis.Line2.GradientExpr, 0
TestParameter, AutoAnalysis.Marker.Enabled, false
TestParameter, AutoAnalysis.Marker.Data.Var, 
TestParameter, AutoAnalysis.Marker.Data.Condition, 
TestParameter, AutoAnalysis.Marker.Data.Start, false
TestParameter, AutoAnalysis.Marker.Data.StartVar, 
TestParameter, AutoAnalysis.Marker.Data.StartCondition, 
MetaData, TestRecord.EntryPoint, true
MetaData, TestRecord.RecordTime, 03/12/2020 00:15:50
MetaData, TestRecord.TestTarget, 
MetaData, TestRecord.IterationIndex, 1
MetaData, TestRecord.Preservation, true
MetaData, TestRecord.Flag, 
MetaData, TestRecord.Remarks, 
MetaData, TestRecord.LinkKey, cbeaef58-7245-40b0-98fe-73dac2a49d14
Dimension1, 70, 70, 70, 70
Dimension2, 1, 1, 1, 1
DataName, Vtop, Itop, Resistance, absItop
DataValue, 0, 2.222E-09, 0, 2.222E-09
DataValue, 0.05, 3.9354E-05, 1270.5188799105554, 3.9354E-05
DataValue, 0.1, 7.9204000000000009E-05, 1262.5624968435936, 7.9204000000000009E-05
DataValue, 0.15, 0.00012, 1250, 0.00012
DataValue, 0.2, 0.00016198000000000002, 1234.7203358439313, 0.00016198000000000002
DataValue, 0.25, 0.00020516000000000002, 1218.5611230259308, 0.00020516000000000002
DataValue, 0.3, 0.00025008, 1199.6161228406909, 0.00025008
DataValue, 0.35000000000000003, 0.00029654000000000003, 1180.2792203412694, 0.00029654000000000003
DataValue, 0.4, 0.00034468000000000004, 1160.496692584426, 0.00034468000000000004
DataValue, 0.45, 0.00039532, 1138.3183243954265, 0.00039532
DataValue, 0.5, 0.00044656000000000003, 1119.6703690433535, 0.00044656000000000003
DataValue, 0.55, 0.00049932, 1101.4980373307699, 0.00049932
DataValue, 0.6, 0.00055388000000000008, 1083.2671336751641, 0.00055388000000000008
DataValue, 0.65, 0.00060886, 1067.5688992543442, 0.00060886
DataValue, 0.70000000000000007, 0.00066556, 1051.7458981909972, 0.00066556
DataValue, 0.75, 0.0007234, 1036.7708045341442, 0.0007234
DataValue, 0.8, 0.0007818800000000001, 1023.1749117511638, 0.0007818800000000001
DataValue, 0.85000000000000009, 0.00084126, 1010.3891781375556, 0.00084126
DataValue, 0.9, 0.00089948, 1000.5781117979277, 0.00089948
DataValue, 0.95000000000000007, 0.00095896, 990.65654458997255, 0.00095896
DataValue, 1, 0.00101526, 984.96936745267215, 0.00101526
DataValue, 1.05, 0.00106912, 982.11613289434308, 0.00106912
DataValue, 1.1, 0.00111584, 985.80441640378547, 0.00111584
DataValue, 1.1500000000000001, 0.0010928, 1052.3426061493412, 0.0010928
DataValue, 1.2, 0.0011406, 1052.0778537611782, 0.0011406
DataValue, 1.25, 0.0011482, 1088.6605121059049, 0.0011482
DataValue, 1.3, 0.0011638, 1117.0304175975255, 0.0011638
DataValue, 1.35, 0.0011586, 1165.1993785603315, 0.0011586
DataValue, 1.4000000000000001, 0.0011818, 1184.6336097478425, 0.0011818
DataValue, 1.4500000000000002, 0.0012484, 1161.4867029798143, 0.0012484
DataValue, 1.5, 0.0013092, 1145.7378551787351, 0.0013092
DataValue, 1.55, 0.001418, 1093.0888575458394, 0.001418
DataValue, 1.6, 0.0015244, 1049.5932826029914, 0.0015244
DataValue, 1.6500000000000001, 0.0016132, 1022.8118026283165, 0.0016132
DataValue, 1.7000000000000002, 0.0016776, 1013.3524082021937, 0.0016776
DataValue, 1.7000000000000002, 0.0016624, 1022.6179018286815, 0.0016624
DataValue, 1.6500000000000001, 0.0015256, 1081.5416885159939, 0.0015256
DataValue, 1.6, 0.0014072, 1137.0096645821491, 0.0014072
DataValue, 1.55, 0.001299, 1193.2255581216321, 0.001299
DataValue, 1.5, 0.0012064, 1243.3687002652519, 0.0012064
DataValue, 1.4500000000000002, 0.0011268, 1286.8299609513667, 0.0011268
DataValue, 1.4000000000000001, 0.001046, 1338.4321223709369, 0.001046
DataValue, 1.35, 0.0009686, 1393.7641957464382, 0.0009686
DataValue, 1.3, 0.0008949400000000001, 1452.6113482468097, 0.0008949400000000001
DataValue, 1.25, 0.00082172000000000007, 1521.1994353307696, 0.00082172000000000007
DataValue, 1.2, 0.00075132000000000009, 1597.1889474524835, 0.00075132000000000009
DataValue, 1.1500000000000001, 0.00067728, 1697.9683439640917, 0.00067728
DataValue, 1.1, 0.00061002000000000007, 1803.2195665715879, 0.00061002000000000007
DataValue, 1.05, 0.00054254, 1935.3411730010691, 0.00054254
DataValue, 1, 0.00047716, 2095.7330874339841, 0.00047716
DataValue, 0.95000000000000007, 0.00041554000000000005, 2286.1818356836884, 0.00041554000000000005
DataValue, 0.9, 0.00035688, 2521.8560860793546, 0.00035688
DataValue, 0.85000000000000009, 0.00030272000000000003, 2807.8752642706131, 0.00030272000000000003
DataValue, 0.8, 0.0002539, 3150.8467900748328, 0.0002539
DataValue, 0.75, 0.00021064, 3560.5772882643373, 0.00021064
DataValue, 0.70000000000000007, 0.00017372, 4029.4727147133322, 0.00017372
DataValue, 0.65, 0.00014244, 4563.3249087335016, 0.00014244
DataValue, 0.6, 0.00011632000000000001, 5158.1843191196695, 0.00011632000000000001
DataValue, 0.55, 9.4776E-05, 5803.156917363046, 9.4776E-05
DataValue, 0.5, 7.7036E-05, 6490.4719871229036, 7.7036E-05
DataValue, 0.45, 6.2358E-05, 7216.3956509188874, 6.2358E-05
DataValue, 0.4, 5.0044000000000004E-05, 7992.9661897530168, 5.0044000000000004E-05
DataValue, 0.35000000000000003, 3.9818000000000004E-05, 8789.9944748606158, 3.9818000000000004E-05
DataValue, 0.3, 3.1214E-05, 9611.0719548920351, 3.1214E-05
DataValue, 0.25, 2.3902000000000003E-05, 10459.375784453183, 2.3902000000000003E-05
DataValue, 0.2, 1.7688E-05, 11307.100859339666, 1.7688E-05
DataValue, 0.15, 1.2386E-05, 12110.447279186177, 1.2386E-05
DataValue, 0.1, 7.8173E-06, 12792.140508871349, 7.8173E-06
DataValue, 0.05, 3.7950000000000005E-06, 13175.230566534914, 3.7950000000000005E-06
DataValue, 0, 3.0182E-10, 0, 3.0182E-10