
SetupTitle, RESET
PrimitiveTest, I/V Sweep
TestParameter, Context.MainFrame, B1500A
TestParameter, Channel.UnitType, SMU, SMU
TestParameter, Channel.Unit, SMU4:MP, SMU3:MP
TestParameter, Channel.IName, Itop, Ibot
TestParameter, Channel.VName, Vtop, Vbot
TestParameter, Channel.Mode, V, COMMON
TestParameter, Channel.Func, VAR1, CONST
TestParameter, Channel.Index, 
TestParameter, Channel.Time, 
TestParameter, Measurement.Port.Unit, SMU4:MP, SMU3:MP
TestParameter, Measurement.Port.SeriesResistor, NONE, NONE
TestParameter, Measurement.Port.Filter, ON, ON
TestParameter, Measurement.Port.OutputVoltageComparison, 0, 0
TestParameter, Measurement.Primary.Locus, Double
TestParameter, Measurement.Primary.Scale, LINEAR
TestParameter, Measurement.Primary.Start, 0
TestParameter, Measurement.Primary.Stop, 1.7000000000000002
TestParameter, Measurement.Primary.Step, 0.05
TestParameter, Measurement.Primary.Compliance, 0.002
TestParameter, Measurement.Primary.PowerCompliance, 0
TestParameter, Measurement.Aborting.Condition, CONTINUE AT ANY
TestParameter, Measurement.PostOutput.Value, START
TestParameter, Measurement.PostOutput.Retention, OFF
TestParameter, Measurement.Bias.Source, 0, 0
TestParameter, Measurement.Bias.Compliance, 0.002, 0.1
TestParameter, Measurement.Monitor.Unit, SMU4:MP, SMU3:MP
TestParameter, Measurement.Monitor.Adc, HR ADC, HR ADC
TestParameter, Measurement.Monitor.Measurement, Compliance Side, Compliance Side
TestParameter, Measurement.Monitor.RangingMode, LIMITED, LIMITED
TestParameter, Measurement.Monitor.RangeBoundary, 1nA, 1nA
TestParameter, Measurement.Monitor.RangeRating, BY FULL RANGE, BY FULL RANGE
TestParameter, Measurement.Monitor.RangeRatingCoeff, 50, 50
TestParameter, Measurement.Timing.Hold, 0
TestParameter, Measurement.Timing.Delay, 0
TestParameter, Measurement.Adc.HighSpeed.Mode, AUTO
TestParameter, Measurement.Adc.HighSpeed.Coeff, 1
TestParameter, Measurement.Adc.HighResolution.AutoZero, OFF
TestParameter, Measurement.Adc.HighResolution.Mode, AUTO
TestParameter, Measurement.Adc.HighResolution.Coeff, 6
TestParameter, Measurement.WaitTime.Source.Coeff, 1
TestParameter, Measurement.WaitTime.Source.Offset, 0
TestParameter, Measurement.WaitTime.Monitor.Coeff, 1
TestParameter, Measurement.WaitTime.Monitor.Offset, 0
TestParameter, Function.User.Name, Resistance, absItop
TestParameter, Function.User.Unit, ohm, A
TestParameter, Function.User.Definition, abs(Vtop/Itop), abs(Itop)
TestParameter, Output.Graph.Enabled, true
TestParameter, Output.Graph.AutoScaling, false
TestParameter, Output.Graph.XAxis.Data, Vtop
TestParameter, Output.Graph.XAxis.Scale, Linear
TestParameter, Output.Graph.XAxis.Left, 0
TestParameter, Output.Graph.XAxis.Right, 3.5
TestParameter, Output.Graph.XAxis.RunTimeAutoScale, true
TestParameter, Output.Graph.YAxis.Data, absItop
TestParameter, Output.Graph.YAxis.Scale, Linear
TestParameter, Output.Graph.YAxis.Bottom, 0
TestParameter, Output.Graph.YAxis.Top, 1
TestParameter, Output.Graph.YAxis.Group, 
TestParameter, Output.Graph.YAxis.RunTimeAutoScale, true
TestParameter, Output.List.Data, Vtop, Itop, Resistance
TestParameter, AutoAnalysis.Interpolation, false
TestParameter, AutoAnalysis.Line1.Enabled, false
TestParameter, AutoAnalysis.Line1.Type, 1
TestParameter, AutoAnalysis.Line1.Fix, True
TestParameter, AutoAnalysis.Line1.YAxis, 0
TestParameter, AutoAnalysis.Line1.Point1.Type, 0
TestParameter, AutoAnalysis.Line1.Point1.XY.X, 
TestParameter, AutoAnalysis.Line1.Point1.XY.Y, 
TestParameter, AutoAnalysis.Line1.Point1.Data.Var, 
TestParameter, AutoAnalysis.Line1.Point1.Data.Condition, 
TestParameter, AutoAnalysis.Line1.Point1.Data.Start, false
TestParameter, AutoAnalysis.Line1.Point1.Data.StartVar, 
TestParameter, AutoAnalysis.Line1.Point1.Data.StartCondition, 
TestParameter, AutoAnalysis.Line1.Point2.Type, 0
TestParameter, AutoAnalysis.Line1.Point2.XY.X, 
TestParameter, AutoAnalysis.Line1.Point2.XY.Y, 
TestParameter, AutoAnalysis.Line1.Point2.Data.Var, 
TestParameter, AutoAnalysis.Line1.Point2.Data.Condition, 
TestParameter, AutoAnalysis.Line1.Point2.Data.Start, false
TestParameter, AutoAnalysis.Line1.Point2.Data.StartVar, 
TestParameter, AutoAnalysis.Line1.Point2.Data.StartCondition, 
TestParameter, AutoAnalysis.Line1.GradientExpr, 0
TestParameter, AutoAnalysis.Line2.Enabled, false
TestParameter, AutoAnalysis.Line2.Type, 1
TestParameter, AutoAnalysis.Line2.Fix, True
TestParameter, AutoAnalysis.Line2.YAxis, 0
TestParameter, AutoAnalysis.Line2.Point1.Type, 0
TestParameter, AutoAnalysis.Line2.Point1.XY.X, 
TestParameter, AutoAnalysis.Line2.Point1.XY.Y, 
TestParameter, AutoAnalysis.Line2.Point1.Data.Var, 
TestParameter, AutoAnalysis.Line2.Point1.Data.Condition, 
TestParameter, AutoAnalysis.Line2.Point1.Data.Start, false
TestParameter, AutoAnalysis.Line2.Point1.Data.StartVar, 
TestParameter, AutoAnalysis.Line2.Point1.Data.StartCondition, 
TestParameter, AutoAnalysis.Line2.Point2.Type, 0
TestParameter, AutoAnalysis.Line2.Point2.XY.X, 
TestParameter, AutoAnalysis.Line2.Point2.XY.Y, 
TestParameter, AutoAnalysis.Line2.Point2.Data.Var, 
TestParameter, AutoAnalysis.Line2.Point2.Data.Condition, 
TestParameter, AutoAnalysis.Line2.Point2.Data.Start, false
TestParameter, AutoAnalysis.Line2.Point2.Data.StartVar, 
TestParameter, AutoAnalysis.Line2.Point2.Data.StartCondition, 
TestParameter, AutoAnalysis.Line2.GradientExpr, 0
TestParameter, AutoAnalysis.Marker.Enabled, false
TestParameter, AutoAnalysis.Marker.Data.Var, 
TestParameter, AutoAnalysis.Marker.Data.Condition, 
TestParameter, AutoAnalysis.Marker.Data.Start, false
TestParameter, AutoAnalysis.Marker.Data.StartVar, 
TestParameter, AutoAnalysis.Marker.Data.StartCondition, 
MetaData, TestRecord.EntryPoint, true
MetaData, TestRecord.RecordTime, 03/12/2020 00:13:59
MetaData, TestRecord.TestTarget, 
MetaData, TestRecord.IterationIndex, 1
MetaData, TestRecord.Preservation, true
MetaData, TestRecord.Flag, 
MetaData, TestRecord.Remarks, 
MetaData, TestRecord.LinkKey, 9a0a3df4-46df-49f4-b8bb-0a965a9ca715
Dimension1, 70, 70, 70, 70
Dimension2, 1, 1, 1, 1
DataName, Vtop, Itop, Resistance, absItop
DataValue, 0, 3.3359999999999996E-09, 0, 3.3359999999999996E-09
DataValue, 0.05, 3.511E-05, 1424.0956992309884, 3.511E-05
DataValue, 0.1, 7.0664E-05, 1415.1477414242047, 7.0664E-05
DataValue, 0.15, 0.00010662800000000001, 1406.7599504820496, 0.00010662800000000001
DataValue, 0.2, 0.00014350000000000002, 1393.7282229965156, 0.00014350000000000002
DataValue, 0.25, 0.0001811, 1380.4527885146326, 0.0001811
DataValue, 0.3, 0.0002198, 1364.877161055505, 0.0002198
DataValue, 0.35000000000000003, 0.0002595, 1348.747591522158, 0.0002595
DataValue, 0.4, 0.00030066, 1330.4064391671657, 0.00030066
DataValue, 0.45, 0.00034258000000000004, 1313.5617957849261, 0.00034258000000000004
DataValue, 0.5, 0.00038570000000000005, 1296.3443090484832, 0.00038570000000000005
DataValue, 0.55, 0.00042940000000000003, 1280.8570097810898, 0.00042940000000000003
DataValue, 0.6, 0.0004737, 1266.6244458518049, 0.0004737
DataValue, 0.65, 0.00051902, 1252.3602173326653, 0.00051902
DataValue, 0.70000000000000007, 0.00056432, 1240.4309611567905, 0.00056432
DataValue, 0.75, 0.0006109, 1227.6968407267964, 0.0006109
DataValue, 0.8, 0.00065792, 1215.9533073929963, 0.00065792
DataValue, 0.85000000000000009, 0.00070638, 1203.3183272459582, 0.00070638
DataValue, 0.9, 0.00075406000000000008, 1193.5389756783279, 0.00075406000000000008
DataValue, 0.95000000000000007, 0.00080290000000000005, 1183.2108606302154, 0.00080290000000000005
DataValue, 1, 0.00085122000000000008, 1174.7844270576347, 0.00085122000000000008
DataValue, 1.05, 0.00090044000000000007, 1166.0965750077739, 0.00090044000000000007
DataValue, 1.1, 0.00094958000000000011, 1158.4068746182522, 0.00094958000000000011
DataValue, 1.1500000000000001, 0.0009953, 1155.4305234602634, 0.0009953
DataValue, 1.2, 0.00103778, 1156.3144404401703, 0.00103778
DataValue, 1.25, 0.0010765, 1161.1704598235021, 0.0010765
DataValue, 1.3, 0.0011080600000000001, 1173.2216666967493, 0.0011080600000000001
DataValue, 1.35, 0.001137, 1187.3350923482851, 0.001137
DataValue, 1.4000000000000001, 0.0011036, 1268.575570859007, 0.0011036
DataValue, 1.4500000000000002, 0.0011166, 1298.5849901486658, 0.0011166
DataValue, 1.5, 0.0011338000000000001, 1322.9846533780208, 0.0011338000000000001
DataValue, 1.55, 0.0011496, 1348.2950591510091, 0.0011496
DataValue, 1.6, 0.0011624, 1376.4624913971095, 0.0011624
DataValue, 1.6500000000000001, 0.0012048, 1369.5219123505976, 0.0012048
DataValue, 1.7000000000000002, 0.0012664, 1342.3878711307646, 0.0012664
DataValue, 1.7000000000000002, 0.0012676, 1341.1170716314296, 0.0012676
DataValue, 1.6500000000000001, 0.0011882, 1388.6551085675815, 0.0011882
DataValue, 1.6, 0.0011208, 1427.5517487508923, 0.0011208
DataValue, 1.55, 0.0010492, 1477.3160503240565, 0.0010492
DataValue, 1.5, 0.00098618000000000013, 1521.020503356385, 0.00098618000000000013
DataValue, 1.4500000000000002, 0.00092798, 1562.5336752947264, 0.00092798
DataValue, 1.4000000000000001, 0.00086348, 1621.3461805716404, 0.00086348
DataValue, 1.35, 0.00080890000000000009, 1668.9331190505625, 0.00080890000000000009
DataValue, 1.3, 0.000745, 1744.96644295302, 0.000745
DataValue, 1.25, 0.00069244, 1805.2105597596903, 0.00069244
DataValue, 1.2, 0.00063768000000000006, 1881.8216033120057, 0.00063768000000000006
DataValue, 1.1500000000000001, 0.00058414, 1968.7061320916221, 0.00058414
DataValue, 1.1, 0.00053266, 2065.1071978372697, 0.00053266
DataValue, 1.05, 0.00048214000000000004, 2177.7906832040485, 0.00048214000000000004
DataValue, 1, 0.00043250000000000005, 2312.1387283236991, 0.00043250000000000005
DataValue, 0.95000000000000007, 0.00038274, 2482.1027329257458, 0.00038274
DataValue, 0.9, 0.00033822, 2660.9898882384246, 0.00033822
DataValue, 0.85000000000000009, 0.00029538000000000003, 2877.649129934322, 0.00029538000000000003
DataValue, 0.8, 0.0002545, 3143.4184675834972, 0.0002545
DataValue, 0.75, 0.00021648000000000001, 3464.5232815964523, 0.00021648000000000001
DataValue, 0.70000000000000007, 0.00018166000000000002, 3853.352416602444, 0.00018166000000000002
DataValue, 0.65, 0.00015228, 4268.4528500131337, 0.00015228
DataValue, 0.6, 0.00012496, 4801.5364916773369, 0.00012496
DataValue, 0.55, 0.00010168, 5409.12667191188, 0.00010168
DataValue, 0.5, 8.1256000000000009E-05, 6153.3917495323412, 8.1256000000000009E-05
DataValue, 0.45, 6.5284000000000007E-05, 6892.9599901966785, 6.5284000000000007E-05
DataValue, 0.4, 5.1892000000000004E-05, 7708.3172743390114, 5.1892000000000004E-05
DataValue, 0.35000000000000003, 4.0852E-05, 8567.5119945167935, 4.0852E-05
DataValue, 0.3, 3.1632E-05, 9484.0667678300451, 3.1632E-05
DataValue, 0.25, 2.3922000000000002E-05, 10450.631218125574, 2.3922000000000002E-05
DataValue, 0.2, 1.7238E-05, 11602.27404571296, 1.7238E-05
DataValue, 0.15, 1.1924E-05, 12579.671251257967, 1.1924E-05
DataValue, 0.1, 7.4020000000000005E-06, 13509.862199405567, 7.4020000000000005E-06
DataValue, 0.05, 3.5020000000000005E-06, 14277.55568246716, 3.5020000000000005E-06
DataValue, 0, 5.4149000000000006E-10, 0, 5.4149000000000006E-10