
SetupTitle, SET
PrimitiveTest, I/V Sweep
TestParameter, Context.MainFrame, B1500A
TestParameter, Channel.UnitType, SMU, SMU
TestParameter, Channel.Unit, SMU3:MP, SMU4:MP
TestParameter, Channel.IName, Itop, Ibot
TestParameter, Channel.VName, Vtop, Vbot
TestParameter, Channel.Mode, V, COMMON
TestParameter, Channel.Func, VAR1, CONST
TestParameter, Channel.Index, 
TestParameter, Channel.Time, 
TestParameter, Measurement.Port.Unit, SMU3:MP, SMU4:MP
TestParameter, Measurement.Port.SeriesResistor, NONE, NONE
TestParameter, Measurement.Port.Filter, ON, ON
TestParameter, Measurement.Port.OutputVoltageComparison, 0, 0
TestParameter, Measurement.Primary.Locus, Double
TestParameter, Measurement.Primary.Scale, LINEAR
TestParameter, Measurement.Primary.Start, 0
TestParameter, Measurement.Primary.Stop, 1.8
TestParameter, Measurement.Primary.Step, 0.1
TestParameter, Measurement.Primary.Compliance, 0.001
TestParameter, Measurement.Primary.PowerCompliance, 0
TestParameter, Measurement.Aborting.Condition, CONTINUE AT ANY
TestParameter, Measurement.PostOutput.Value, START
TestParameter, Measurement.PostOutput.Retention, OFF
TestParameter, Measurement.Bias.Source, 0, 0
TestParameter, Measurement.Bias.Compliance, 0.001, 0.1
TestParameter, Measurement.Monitor.Unit, SMU3:MP, SMU4:MP
TestParameter, Measurement.Monitor.Adc, HR ADC, HR ADC
TestParameter, Measurement.Monitor.Measurement, Compliance Side, Compliance Side
TestParameter, Measurement.Monitor.RangingMode, LIMITED, LIMITED
TestParameter, Measurement.Monitor.RangeBoundary, 1nA, 1nA
TestParameter, Measurement.Monitor.RangeRating, BY FULL RANGE, BY FULL RANGE
TestParameter, Measurement.Monitor.RangeRatingCoeff, 50, 50
TestParameter, Measurement.Timing.Hold, 0
TestParameter, Measurement.Timing.Delay, 0
TestParameter, Measurement.Adc.HighSpeed.Mode, AUTO
TestParameter, Measurement.Adc.HighSpeed.Coeff, 1
TestParameter, Measurement.Adc.HighResolution.AutoZero, OFF
TestParameter, Measurement.Adc.HighResolution.Mode, AUTO
TestParameter, Measurement.Adc.HighResolution.Coeff, 6
TestParameter, Measurement.WaitTime.Source.Coeff, 1
TestParameter, Measurement.WaitTime.Source.Offset, 0
TestParameter, Measurement.WaitTime.Monitor.Coeff, 1
TestParameter, Measurement.WaitTime.Monitor.Offset, 0
TestParameter, Function.User.Name, Resistance, absItop
TestParameter, Function.User.Unit, ohm, A
TestParameter, Function.User.Definition, abs(Vtop/Itop), abs(Itop)
TestParameter, Output.Graph.Enabled, true
TestParameter, Output.Graph.AutoScaling, false
TestParameter, Output.Graph.XAxis.Data, Vtop
TestParameter, Output.Graph.XAxis.Scale, Linear
TestParameter, Output.Graph.XAxis.Left, 0
TestParameter, Output.Graph.XAxis.Right, 3.5
TestParameter, Output.Graph.XAxis.RunTimeAutoScale, true
TestParameter, Output.Graph.YAxis.Data, absItop
TestParameter, Output.Graph.YAxis.Scale, Linear
TestParameter, Output.Graph.YAxis.Bottom, 0
TestParameter, Output.Graph.YAxis.Top, 1
TestParameter, Output.Graph.YAxis.Group, 
TestParameter, Output.Graph.YAxis.RunTimeAutoScale, true
TestParameter, Output.List.Data, Vtop, Itop, Resistance
TestParameter, AutoAnalysis.Interpolation, false
TestParameter, AutoAnalysis.Line1.Enabled, false
TestParameter, AutoAnalysis.Line1.Type, 1
TestParameter, AutoAnalysis.Line1.Fix, True
TestParameter, AutoAnalysis.Line1.YAxis, 0
TestParameter, AutoAnalysis.Line1.Point1.Type, 0
TestParameter, AutoAnalysis.Line1.Point1.XY.X, 
TestParameter, AutoAnalysis.Line1.Point1.XY.Y, 
TestParameter, AutoAnalysis.Line1.Point1.Data.Var, 
TestParameter, AutoAnalysis.Line1.Point1.Data.Condition, 
TestParameter, AutoAnalysis.Line1.Point1.Data.Start, false
TestParameter, AutoAnalysis.Line1.Point1.Data.StartVar, 
TestParameter, AutoAnalysis.Line1.Point1.Data.StartCondition, 
TestParameter, AutoAnalysis.Line1.Point2.Type, 0
TestParameter, AutoAnalysis.Line1.Point2.XY.X, 
TestParameter, AutoAnalysis.Line1.Point2.XY.Y, 
TestParameter, AutoAnalysis.Line1.Point2.Data.Var, 
TestParameter, AutoAnalysis.Line1.Point2.Data.Condition, 
TestParameter, AutoAnalysis.Line1.Point2.Data.Start, false
TestParameter, AutoAnalysis.Line1.Point2.Data.StartVar, 
TestParameter, AutoAnalysis.Line1.Point2.Data.StartCondition, 
TestParameter, AutoAnalysis.Line1.GradientExpr, 0
TestParameter, AutoAnalysis.Line2.Enabled, false
TestParameter, AutoAnalysis.Line2.Type, 1
TestParameter, AutoAnalysis.Line2.Fix, True
TestParameter, AutoAnalysis.Line2.YAxis, 0
TestParameter, AutoAnalysis.Line2.Point1.Type, 0
TestParameter, AutoAnalysis.Line2.Point1.XY.X, 
TestParameter, AutoAnalysis.Line2.Point1.XY.Y, 
TestParameter, AutoAnalysis.Line2.Point1.Data.Var, 
TestParameter, AutoAnalysis.Line2.Point1.Data.Condition, 
TestParameter, AutoAnalysis.Line2.Point1.Data.Start, false
TestParameter, AutoAnalysis.Line2.Point1.Data.StartVar, 
TestParameter, AutoAnalysis.Line2.Point1.Data.StartCondition, 
TestParameter, AutoAnalysis.Line2.Point2.Type, 0
TestParameter, AutoAnalysis.Line2.Point2.XY.X, 
TestParameter, AutoAnalysis.Line2.Point2.XY.Y, 
TestParameter, AutoAnalysis.Line2.Point2.Data.Var, 
TestParameter, AutoAnalysis.Line2.Point2.Data.Condition, 
TestParameter, AutoAnalysis.Line2.Point2.Data.Start, false
TestParameter, AutoAnalysis.Line2.Point2.Data.StartVar, 
TestParameter, AutoAnalysis.Line2.Point2.Data.StartCondition, 
TestParameter, AutoAnalysis.Line2.GradientExpr, 0
TestParameter, AutoAnalysis.Marker.Enabled, false
TestParameter, AutoAnalysis.Marker.Data.Var, 
TestParameter, AutoAnalysis.Marker.Data.Condition, 
TestParameter, AutoAnalysis.Marker.Data.Start, false
TestParameter, AutoAnalysis.Marker.Data.StartVar, 
TestParameter, AutoAnalysis.Marker.Data.StartCondition, 
MetaData, TestRecord.EntryPoint, true
MetaData, TestRecord.RecordTime, 03/12/2020 00:12:35
MetaData, TestRecord.TestTarget, 
MetaData, TestRecord.IterationIndex, 1
MetaData, TestRecord.Preservation, true
MetaData, TestRecord.Flag, 
MetaData, TestRecord.Remarks, 
MetaData, TestRecord.LinkKey, 65a0fa71-ea4f-4c02-a330-f45eaeafd153
Dimension1, 38, 38, 38, 38
Dimension2, 1, 1, 1, 1
DataName, Vtop, Itop, Resistance, absItop
DataValue, 0, -3.8730000000000005E-10, -0, 3.8730000000000005E-10
DataValue, 0.1, 6.7384000000000006E-06, 14840.318176421702, 6.7384000000000006E-06
DataValue, 0.2, 1.55E-05, 12903.225806451614, 1.55E-05
DataValue, 0.3, 2.7552E-05, 10888.501742160279, 2.7552E-05
DataValue, 0.4, 4.5980000000000004E-05, 8699.43453675511, 4.5980000000000004E-05
DataValue, 0.5, 7.5318E-05, 6638.51934464537, 7.5318E-05
DataValue, 0.6, 0.000114204, 5253.7564358516338, 0.000114204
DataValue, 0.70000000000000007, 0.00016516, 4238.3143618309523, 0.00016516
DataValue, 0.8, 0.00022720000000000002, 3521.1267605633802, 0.00022720000000000002
DataValue, 0.9, 0.0003011, 2989.0401859847229, 0.0003011
DataValue, 1, 0.00038644000000000005, 2587.7238381119964, 0.00038644000000000005
DataValue, 1.1, 0.00081632, 1347.5107800862406, 0.00081632
DataValue, 1.2, 0.0010000200000000001, 1199.9760004799903, 0.0010000200000000001
DataValue, 1.3, 0.0010000200000000001, 1299.9740005199894, 0.0010000200000000001
DataValue, 1.4000000000000001, 0.001, 1400, 0.001
DataValue, 1.5, 0.0010000200000000001, 1499.9700005999878, 0.0010000200000000001
DataValue, 1.6, 0.0010000200000000001, 1599.9680006399872, 0.0010000200000000001
DataValue, 1.7000000000000002, 0.001, 1700.0000000000002, 0.001
DataValue, 1.8, 0.001, 1800, 0.001
DataValue, 1.8, 0.0010000200000000001, 1799.9640007199855, 0.0010000200000000001
DataValue, 1.7000000000000002, 0.001, 1700.0000000000002, 0.001
DataValue, 1.6, 0.0010000200000000001, 1599.9680006399872, 0.0010000200000000001
DataValue, 1.5, 0.0010000200000000001, 1499.9700005999878, 0.0010000200000000001
DataValue, 1.4000000000000001, 0.0010000200000000001, 1399.9720005599888, 0.0010000200000000001
DataValue, 1.3, 0.0010000200000000001, 1299.9740005199894, 0.0010000200000000001
DataValue, 1.2, 0.00100004, 1199.9520019199231, 0.00100004
DataValue, 1.1, 0.00096474000000000006, 1140.203578166138, 0.00096474000000000006
DataValue, 1, 0.00086736000000000007, 1152.9238147943183, 0.00086736000000000007
DataValue, 0.9, 0.00077184000000000009, 1166.044776119403, 0.00077184000000000009
DataValue, 0.8, 0.00067738, 1181.0209926481443, 0.00067738
DataValue, 0.70000000000000007, 0.00058458, 1197.4408977385474, 0.00058458
DataValue, 0.6, 0.00049316000000000008, 1216.6436856192713, 0.00049316000000000008
DataValue, 0.5, 0.0004041, 1237.3174956693888, 0.0004041
DataValue, 0.4, 0.00031792, 1258.1781580271766, 0.00031792
DataValue, 0.3, 0.0002346, 1278.772378516624, 0.0002346
DataValue, 0.2, 0.00015428000000000002, 1296.3443090484832, 0.00015428000000000002
DataValue, 0.1, 7.6428000000000008E-05, 1308.4209975401684, 7.6428000000000008E-05
DataValue, 0, -9.3698E-09, -0, 9.3698E-09