
SetupTitle, SET
PrimitiveTest, I/V Sweep
TestParameter, Context.MainFrame, B1500A
TestParameter, Channel.UnitType, SMU, SMU
TestParameter, Channel.Unit, SMU3:MP, SMU4:MP
TestParameter, Channel.IName, Itop, Ibot
TestParameter, Channel.VName, Vtop, Vbot
TestParameter, Channel.Mode, V, COMMON
TestParameter, Channel.Func, VAR1, CONST
TestParameter, Channel.Index, 
TestParameter, Channel.Time, 
TestParameter, Measurement.Port.Unit, SMU3:MP, SMU4:MP
TestParameter, Measurement.Port.SeriesResistor, NONE, NONE
TestParameter, Measurement.Port.Filter, ON, ON
TestParameter, Measurement.Port.OutputVoltageComparison, 0, 0
TestParameter, Measurement.Primary.Locus, Double
TestParameter, Measurement.Primary.Scale, LINEAR
TestParameter, Measurement.Primary.Start, 0
TestParameter, Measurement.Primary.Stop, 1.8
TestParameter, Measurement.Primary.Step, 0.1
TestParameter, Measurement.Primary.Compliance, 0.001
TestParameter, Measurement.Primary.PowerCompliance, 0
TestParameter, Measurement.Aborting.Condition, CONTINUE AT ANY
TestParameter, Measurement.PostOutput.Value, START
TestParameter, Measurement.PostOutput.Retention, OFF
TestParameter, Measurement.Bias.Source, 0, 0
TestParameter, Measurement.Bias.Compliance, 0.001, 0.1
TestParameter, Measurement.Monitor.Unit, SMU3:MP, SMU4:MP
TestParameter, Measurement.Monitor.Adc, HR ADC, HR ADC
TestParameter, Measurement.Monitor.Measurement, Compliance Side, Compliance Side
TestParameter, Measurement.Monitor.RangingMode, LIMITED, LIMITED
TestParameter, Measurement.Monitor.RangeBoundary, 1nA, 1nA
TestParameter, Measurement.Monitor.RangeRating, BY FULL RANGE, BY FULL RANGE
TestParameter, Measurement.Monitor.RangeRatingCoeff, 50, 50
TestParameter, Measurement.Timing.Hold, 0
TestParameter, Measurement.Timing.Delay, 0
TestParameter, Measurement.Adc.HighSpeed.Mode, AUTO
TestParameter, Measurement.Adc.HighSpeed.Coeff, 1
TestParameter, Measurement.Adc.HighResolution.AutoZero, OFF
TestParameter, Measurement.Adc.HighResolution.Mode, AUTO
TestParameter, Measurement.Adc.HighResolution.Coeff, 6
TestParameter, Measurement.WaitTime.Source.Coeff, 1
TestParameter, Measurement.WaitTime.Source.Offset, 0
TestParameter, Measurement.WaitTime.Monitor.Coeff, 1
TestParameter, Measurement.WaitTime.Monitor.Offset, 0
TestParameter, Function.User.Name, Resistance, absItop
TestParameter, Function.User.Unit, ohm, A
TestParameter, Function.User.Definition, abs(Vtop/Itop), abs(Itop)
TestParameter, Output.Graph.Enabled, true
TestParameter, Output.Graph.AutoScaling, false
TestParameter, Output.Graph.XAxis.Data, Vtop
TestParameter, Output.Graph.XAxis.Scale, Linear
TestParameter, Output.Graph.XAxis.Left, 0
TestParameter, Output.Graph.XAxis.Right, 3.5
TestParameter, Output.Graph.XAxis.RunTimeAutoScale, true
TestParameter, Output.Graph.YAxis.Data, absItop
TestParameter, Output.Graph.YAxis.Scale, Linear
TestParameter, Output.Graph.YAxis.Bottom, 0
TestParameter, Output.Graph.YAxis.Top, 1
TestParameter, Output.Graph.YAxis.Group, 
TestParameter, Output.Graph.YAxis.RunTimeAutoScale, true
TestParameter, Output.List.Data, Vtop, Itop, Resistance
TestParameter, AutoAnalysis.Interpolation, false
TestParameter, AutoAnalysis.Line1.Enabled, false
TestParameter, AutoAnalysis.Line1.Type, 1
TestParameter, AutoAnalysis.Line1.Fix, True
TestParameter, AutoAnalysis.Line1.YAxis, 0
TestParameter, AutoAnalysis.Line1.Point1.Type, 0
TestParameter, AutoAnalysis.Line1.Point1.XY.X, 
TestParameter, AutoAnalysis.Line1.Point1.XY.Y, 
TestParameter, AutoAnalysis.Line1.Point1.Data.Var, 
TestParameter, AutoAnalysis.Line1.Point1.Data.Condition, 
TestParameter, AutoAnalysis.Line1.Point1.Data.Start, false
TestParameter, AutoAnalysis.Line1.Point1.Data.StartVar, 
TestParameter, AutoAnalysis.Line1.Point1.Data.StartCondition, 
TestParameter, AutoAnalysis.Line1.Point2.Type, 0
TestParameter, AutoAnalysis.Line1.Point2.XY.X, 
TestParameter, AutoAnalysis.Line1.Point2.XY.Y, 
TestParameter, AutoAnalysis.Line1.Point2.Data.Var, 
TestParameter, AutoAnalysis.Line1.Point2.Data.Condition, 
TestParameter, AutoAnalysis.Line1.Point2.Data.Start, false
TestParameter, AutoAnalysis.Line1.Point2.Data.StartVar, 
TestParameter, AutoAnalysis.Line1.Point2.Data.StartCondition, 
TestParameter, AutoAnalysis.Line1.GradientExpr, 0
TestParameter, AutoAnalysis.Line2.Enabled, false
TestParameter, AutoAnalysis.Line2.Type, 1
TestParameter, AutoAnalysis.Line2.Fix, True
TestParameter, AutoAnalysis.Line2.YAxis, 0
TestParameter, AutoAnalysis.Line2.Point1.Type, 0
TestParameter, AutoAnalysis.Line2.Point1.XY.X, 
TestParameter, AutoAnalysis.Line2.Point1.XY.Y, 
TestParameter, AutoAnalysis.Line2.Point1.Data.Var, 
TestParameter, AutoAnalysis.Line2.Point1.Data.Condition, 
TestParameter, AutoAnalysis.Line2.Point1.Data.Start, false
TestParameter, AutoAnalysis.Line2.Point1.Data.StartVar, 
TestParameter, AutoAnalysis.Line2.Point1.Data.StartCondition, 
TestParameter, AutoAnalysis.Line2.Point2.Type, 0
TestParameter, AutoAnalysis.Line2.Point2.XY.X, 
TestParameter, AutoAnalysis.Line2.Point2.XY.Y, 
TestParameter, AutoAnalysis.Line2.Point2.Data.Var, 
TestParameter, AutoAnalysis.Line2.Point2.Data.Condition, 
TestParameter, AutoAnalysis.Line2.Point2.Data.Start, false
TestParameter, AutoAnalysis.Line2.Point2.Data.StartVar, 
TestParameter, AutoAnalysis.Line2.Point2.Data.StartCondition, 
TestParameter, AutoAnalysis.Line2.GradientExpr, 0
TestParameter, AutoAnalysis.Marker.Enabled, false
TestParameter, AutoAnalysis.Marker.Data.Var, 
TestParameter, AutoAnalysis.Marker.Data.Condition, 
TestParameter, AutoAnalysis.Marker.Data.Start, false
TestParameter, AutoAnalysis.Marker.Data.StartVar, 
TestParameter, AutoAnalysis.Marker.Data.StartCondition, 
MetaData, TestRecord.EntryPoint, true
MetaData, TestRecord.RecordTime, 03/12/2020 00:16:11
MetaData, TestRecord.TestTarget, 
MetaData, TestRecord.IterationIndex, 1
MetaData, TestRecord.Preservation, true
MetaData, TestRecord.Flag, 
MetaData, TestRecord.Remarks, 
MetaData, TestRecord.LinkKey, c723b6ab-68dc-4937-93c8-5c8b053c883b
Dimension1, 38, 38, 38, 38
Dimension2, 1, 1, 1, 1
DataName, Vtop, Itop, Resistance, absItop
DataValue, 0, -3.5014000000000004E-10, -0, 3.5014000000000004E-10
DataValue, 0.1, 8.2705000000000015E-06, 12091.167402212683, 8.2705000000000015E-06
DataValue, 0.2, 1.9424E-05, 10296.540362438222, 1.9424E-05
DataValue, 0.3, 3.4938E-05, 8586.63918942126, 3.4938E-05
DataValue, 0.4, 5.6366E-05, 7096.4765993684141, 5.6366E-05
DataValue, 0.5, 8.6366E-05, 5789.3152397934364, 8.6366E-05
DataValue, 0.6, 0.00012722000000000002, 4716.2395849709155, 0.00012722000000000002
DataValue, 0.70000000000000007, 0.00018648000000000002, 3753.7537537537537, 0.00018648000000000002
DataValue, 0.8, 0.0002639, 3031.4513073133762, 0.0002639
DataValue, 0.9, 0.00036024, 2498.3344437041974, 0.00036024
DataValue, 1, 0.0004802, 2082.4656393169512, 0.0004802
DataValue, 1.1, 0.00066272, 1659.826170931917, 0.00066272
DataValue, 1.2, 0.00100004, 1199.9520019199231, 0.00100004
DataValue, 1.3, 0.00100004, 1299.9480020799169, 0.00100004
DataValue, 1.4000000000000001, 0.0010000200000000001, 1399.9720005599888, 0.0010000200000000001
DataValue, 1.5, 0.00100004, 1499.940002399904, 0.00100004
DataValue, 1.6, 0.0010000200000000001, 1599.9680006399872, 0.0010000200000000001
DataValue, 1.7000000000000002, 0.00100004, 1699.9320027198914, 0.00100004
DataValue, 1.8, 0.0010000200000000001, 1799.9640007199855, 0.0010000200000000001
DataValue, 1.8, 0.0010000200000000001, 1799.9640007199855, 0.0010000200000000001
DataValue, 1.7000000000000002, 0.0010000200000000001, 1699.9660006799863, 0.0010000200000000001
DataValue, 1.6, 0.0010000200000000001, 1599.9680006399872, 0.0010000200000000001
DataValue, 1.5, 0.001, 1500, 0.001
DataValue, 1.4000000000000001, 0.001, 1400, 0.001
DataValue, 1.3, 0.0010000200000000001, 1299.9740005199894, 0.0010000200000000001
DataValue, 1.2, 0.00099998000000000014, 1200.0240004800094, 0.00099998000000000014
DataValue, 1.1, 0.00099998000000000014, 1100.0220004400087, 0.00099998000000000014
DataValue, 1, 0.0009677, 1033.3781130515656, 0.0009677
DataValue, 0.9, 0.00085086, 1057.7533319229956, 0.00085086
DataValue, 0.8, 0.00073674, 1085.8647555446969, 0.00073674
DataValue, 0.70000000000000007, 0.00062582, 1118.5324853791826, 0.00062582
DataValue, 0.6, 0.0005186, 1156.9610489780177, 0.0005186
DataValue, 0.5, 0.00041566000000000004, 1202.9062214309772, 0.00041566000000000004
DataValue, 0.4, 0.00031832000000000003, 1256.5971349585323, 0.00031832000000000003
DataValue, 0.3, 0.00022802, 1315.6740636786246, 0.00022802
DataValue, 0.2, 0.00014566, 1373.0605519703418, 0.00014566
DataValue, 0.1, 7.051E-05, 1418.2385477237272, 7.051E-05
DataValue, 0, -3.5092E-09, -0, 3.5092E-09