
SetupTitle, SET
PrimitiveTest, I/V Sweep
TestParameter, Context.MainFrame, B1500A
TestParameter, Channel.UnitType, SMU, SMU
TestParameter, Channel.Unit, SMU3:MP, SMU4:MP
TestParameter, Channel.IName, Itop, Ibot
TestParameter, Channel.VName, Vtop, Vbot
TestParameter, Channel.Mode, V, COMMON
TestParameter, Channel.Func, VAR1, CONST
TestParameter, Channel.Index, 
TestParameter, Channel.Time, 
TestParameter, Measurement.Port.Unit, SMU3:MP, SMU4:MP
TestParameter, Measurement.Port.SeriesResistor, NONE, NONE
TestParameter, Measurement.Port.Filter, ON, ON
TestParameter, Measurement.Port.OutputVoltageComparison, 0, 0
TestParameter, Measurement.Primary.Locus, Double
TestParameter, Measurement.Primary.Scale, LINEAR
TestParameter, Measurement.Primary.Start, 0
TestParameter, Measurement.Primary.Stop, 1.8
TestParameter, Measurement.Primary.Step, 0.1
TestParameter, Measurement.Primary.Compliance, 0.001
TestParameter, Measurement.Primary.PowerCompliance, 0
TestParameter, Measurement.Aborting.Condition, CONTINUE AT ANY
TestParameter, Measurement.PostOutput.Value, START
TestParameter, Measurement.PostOutput.Retention, OFF
TestParameter, Measurement.Bias.Source, 0, 0
TestParameter, Measurement.Bias.Compliance, 0.001, 0.1
TestParameter, Measurement.Monitor.Unit, SMU3:MP, SMU4:MP
TestParameter, Measurement.Monitor.Adc, HR ADC, HR ADC
TestParameter, Measurement.Monitor.Measurement, Compliance Side, Compliance Side
TestParameter, Measurement.Monitor.RangingMode, LIMITED, LIMITED
TestParameter, Measurement.Monitor.RangeBoundary, 1nA, 1nA
TestParameter, Measurement.Monitor.RangeRating, BY FULL RANGE, BY FULL RANGE
TestParameter, Measurement.Monitor.RangeRatingCoeff, 50, 50
TestParameter, Measurement.Timing.Hold, 0
TestParameter, Measurement.Timing.Delay, 0
TestParameter, Measurement.Adc.HighSpeed.Mode, AUTO
TestParameter, Measurement.Adc.HighSpeed.Coeff, 1
TestParameter, Measurement.Adc.HighResolution.AutoZero, OFF
TestParameter, Measurement.Adc.HighResolution.Mode, AUTO
TestParameter, Measurement.Adc.HighResolution.Coeff, 6
TestParameter, Measurement.WaitTime.Source.Coeff, 1
TestParameter, Measurement.WaitTime.Source.Offset, 0
TestParameter, Measurement.WaitTime.Monitor.Coeff, 1
TestParameter, Measurement.WaitTime.Monitor.Offset, 0
TestParameter, Function.User.Name, Resistance, absItop
TestParameter, Function.User.Unit, ohm, A
TestParameter, Function.User.Definition, abs(Vtop/Itop), abs(Itop)
TestParameter, Output.Graph.Enabled, true
TestParameter, Output.Graph.AutoScaling, false
TestParameter, Output.Graph.XAxis.Data, Vtop
TestParameter, Output.Graph.XAxis.Scale, Linear
TestParameter, Output.Graph.XAxis.Left, 0
TestParameter, Output.Graph.XAxis.Right, 3.5
TestParameter, Output.Graph.XAxis.RunTimeAutoScale, true
TestParameter, Output.Graph.YAxis.Data, absItop
TestParameter, Output.Graph.YAxis.Scale, Linear
TestParameter, Output.Graph.YAxis.Bottom, 0
TestParameter, Output.Graph.YAxis.Top, 1
TestParameter, Output.Graph.YAxis.Group, 
TestParameter, Output.Graph.YAxis.RunTimeAutoScale, true
TestParameter, Output.List.Data, Vtop, Itop, Resistance
TestParameter, AutoAnalysis.Interpolation, false
TestParameter, AutoAnalysis.Line1.Enabled, false
TestParameter, AutoAnalysis.Line1.Type, 1
TestParameter, AutoAnalysis.Line1.Fix, True
TestParameter, AutoAnalysis.Line1.YAxis, 0
TestParameter, AutoAnalysis.Line1.Point1.Type, 0
TestParameter, AutoAnalysis.Line1.Point1.XY.X, 
TestParameter, AutoAnalysis.Line1.Point1.XY.Y, 
TestParameter, AutoAnalysis.Line1.Point1.Data.Var, 
TestParameter, AutoAnalysis.Line1.Point1.Data.Condition, 
TestParameter, AutoAnalysis.Line1.Point1.Data.Start, false
TestParameter, AutoAnalysis.Line1.Point1.Data.StartVar, 
TestParameter, AutoAnalysis.Line1.Point1.Data.StartCondition, 
TestParameter, AutoAnalysis.Line1.Point2.Type, 0
TestParameter, AutoAnalysis.Line1.Point2.XY.X, 
TestParameter, AutoAnalysis.Line1.Point2.XY.Y, 
TestParameter, AutoAnalysis.Line1.Point2.Data.Var, 
TestParameter, AutoAnalysis.Line1.Point2.Data.Condition, 
TestParameter, AutoAnalysis.Line1.Point2.Data.Start, false
TestParameter, AutoAnalysis.Line1.Point2.Data.StartVar, 
TestParameter, AutoAnalysis.Line1.Point2.Data.StartCondition, 
TestParameter, AutoAnalysis.Line1.GradientExpr, 0
TestParameter, AutoAnalysis.Line2.Enabled, false
TestParameter, AutoAnalysis.Line2.Type, 1
TestParameter, AutoAnalysis.Line2.Fix, True
TestParameter, AutoAnalysis.Line2.YAxis, 0
TestParameter, AutoAnalysis.Line2.Point1.Type, 0
TestParameter, AutoAnalysis.Line2.Point1.XY.X, 
TestParameter, AutoAnalysis.Line2.Point1.XY.Y, 
TestParameter, AutoAnalysis.Line2.Point1.Data.Var, 
TestParameter, AutoAnalysis.Line2.Point1.Data.Condition, 
TestParameter, AutoAnalysis.Line2.Point1.Data.Start, false
TestParameter, AutoAnalysis.Line2.Point1.Data.StartVar, 
TestParameter, AutoAnalysis.Line2.Point1.Data.StartCondition, 
TestParameter, AutoAnalysis.Line2.Point2.Type, 0
TestParameter, AutoAnalysis.Line2.Point2.XY.X, 
TestParameter, AutoAnalysis.Line2.Point2.XY.Y, 
TestParameter, AutoAnalysis.Line2.Point2.Data.Var, 
TestParameter, AutoAnalysis.Line2.Point2.Data.Condition, 
TestParameter, AutoAnalysis.Line2.Point2.Data.Start, false
TestParameter, AutoAnalysis.Line2.Point2.Data.StartVar, 
TestParameter, AutoAnalysis.Line2.Point2.Data.StartCondition, 
TestParameter, AutoAnalysis.Line2.GradientExpr, 0
TestParameter, AutoAnalysis.Marker.Enabled, false
TestParameter, AutoAnalysis.Marker.Data.Var, 
TestParameter, AutoAnalysis.Marker.Data.Condition, 
TestParameter, AutoAnalysis.Marker.Data.Start, false
TestParameter, AutoAnalysis.Marker.Data.StartVar, 
TestParameter, AutoAnalysis.Marker.Data.StartCondition, 
MetaData, TestRecord.EntryPoint, true
MetaData, TestRecord.RecordTime, 03/12/2020 00:16:51
MetaData, TestRecord.TestTarget, 
MetaData, TestRecord.IterationIndex, 1
MetaData, TestRecord.Preservation, true
MetaData, TestRecord.Flag, 
MetaData, TestRecord.Remarks, 
MetaData, TestRecord.LinkKey, c1fa8a7b-b042-4b91-bfbb-4e18dd84ea2e
Dimension1, 38, 38, 38, 38
Dimension2, 1, 1, 1, 1
DataName, Vtop, Itop, Resistance, absItop
DataValue, 0, -4.439E-11, -0, 4.439E-11
DataValue, 0.1, 9.0343000000000009E-06, 11068.926203469002, 9.0343000000000009E-06
DataValue, 0.2, 1.9914E-05, 10043.185698503567, 1.9914E-05
DataValue, 0.3, 3.3658E-05, 8913.1855725236182, 3.3658E-05
DataValue, 0.4, 5.1594E-05, 7752.8394774586195, 5.1594E-05
DataValue, 0.5, 7.4636000000000008E-05, 6699.1800203655066, 7.4636000000000008E-05
DataValue, 0.6, 0.000105406, 5692.2755820351776, 0.000105406
DataValue, 0.70000000000000007, 0.00014518000000000002, 4821.6007714561238, 0.00014518000000000002
DataValue, 0.8, 0.00019928, 4014.4520272982741, 0.00019928
DataValue, 0.9, 0.00026698, 3371.03902914076, 0.00026698
DataValue, 1, 0.00035028, 2854.8589699668837, 0.00035028
DataValue, 1.1, 0.00046412000000000005, 2370.0767043006117, 0.00046412000000000005
DataValue, 1.2, 0.00079408000000000007, 1511.1827523675195, 0.00079408000000000007
DataValue, 1.3, 0.0010000200000000001, 1299.9740005199894, 0.0010000200000000001
DataValue, 1.4000000000000001, 0.00100004, 1399.9440022399106, 0.00100004
DataValue, 1.5, 0.001, 1500, 0.001
DataValue, 1.6, 0.0010000200000000001, 1599.9680006399872, 0.0010000200000000001
DataValue, 1.7000000000000002, 0.00100004, 1699.9320027198914, 0.00100004
DataValue, 1.8, 0.0010000200000000001, 1799.9640007199855, 0.0010000200000000001
DataValue, 1.8, 0.00100004, 1799.9280028798848, 0.00100004
DataValue, 1.7000000000000002, 0.00099998000000000014, 1700.0340006800136, 0.00099998000000000014
DataValue, 1.6, 0.001, 1600, 0.001
DataValue, 1.5, 0.0010000200000000001, 1499.9700005999878, 0.0010000200000000001
DataValue, 1.4000000000000001, 0.0010000200000000001, 1399.9720005599888, 0.0010000200000000001
DataValue, 1.3, 0.0010000200000000001, 1299.9740005199894, 0.0010000200000000001
DataValue, 1.2, 0.0010000200000000001, 1199.9760004799903, 0.0010000200000000001
DataValue, 1.1, 0.0010000200000000001, 1099.9780004399911, 0.0010000200000000001
DataValue, 1, 0.0009104400000000001, 1098.3700188919643, 0.0009104400000000001
DataValue, 0.9, 0.00080568, 1117.0688114387847, 0.00080568
DataValue, 0.8, 0.00070206, 1139.5037461185655, 0.00070206
DataValue, 0.70000000000000007, 0.00060040000000000007, 1165.8894070619588, 0.00060040000000000007
DataValue, 0.6, 0.00050116000000000006, 1197.2224439300819, 0.00050116000000000006
DataValue, 0.5, 0.0004047, 1235.4830738818878, 0.0004047
DataValue, 0.4, 0.00031264000000000004, 1279.4268167860798, 0.00031264000000000004
DataValue, 0.3, 0.00022606000000000001, 1327.0813058480048, 0.00022606000000000001
DataValue, 0.2, 0.00014562, 1373.437714599643, 0.00014562
DataValue, 0.1, 7.1052E-05, 1407.419917806677, 7.1052E-05
DataValue, 0, -2.161E-09, -0, 2.161E-09