
SetupTitle, SET
PrimitiveTest, I/V Sweep
TestParameter, Context.MainFrame, B1500A
TestParameter, Channel.UnitType, SMU, SMU
TestParameter, Channel.Unit, SMU3:MP, SMU4:MP
TestParameter, Channel.IName, Itop, Ibot
TestParameter, Channel.VName, Vtop, Vbot
TestParameter, Channel.Mode, V, COMMON
TestParameter, Channel.Func, VAR1, CONST
TestParameter, Channel.Index, 
TestParameter, Channel.Time, 
TestParameter, Measurement.Port.Unit, SMU3:MP, SMU4:MP
TestParameter, Measurement.Port.SeriesResistor, NONE, NONE
TestParameter, Measurement.Port.Filter, ON, ON
TestParameter, Measurement.Port.OutputVoltageComparison, 0, 0
TestParameter, Measurement.Primary.Locus, Double
TestParameter, Measurement.Primary.Scale, LINEAR
TestParameter, Measurement.Primary.Start, 0
TestParameter, Measurement.Primary.Stop, 1.8
TestParameter, Measurement.Primary.Step, 0.1
TestParameter, Measurement.Primary.Compliance, 0.001
TestParameter, Measurement.Primary.PowerCompliance, 0
TestParameter, Measurement.Aborting.Condition, CONTINUE AT ANY
TestParameter, Measurement.PostOutput.Value, START
TestParameter, Measurement.PostOutput.Retention, OFF
TestParameter, Measurement.Bias.Source, 0, 0
TestParameter, Measurement.Bias.Compliance, 0.001, 0.1
TestParameter, Measurement.Monitor.Unit, SMU3:MP, SMU4:MP
TestParameter, Measurement.Monitor.Adc, HR ADC, HR ADC
TestParameter, Measurement.Monitor.Measurement, Compliance Side, Compliance Side
TestParameter, Measurement.Monitor.RangingMode, LIMITED, LIMITED
TestParameter, Measurement.Monitor.RangeBoundary, 1nA, 1nA
TestParameter, Measurement.Monitor.RangeRating, BY FULL RANGE, BY FULL RANGE
TestParameter, Measurement.Monitor.RangeRatingCoeff, 50, 50
TestParameter, Measurement.Timing.Hold, 0
TestParameter, Measurement.Timing.Delay, 0
TestParameter, Measurement.Adc.HighSpeed.Mode, AUTO
TestParameter, Measurement.Adc.HighSpeed.Coeff, 1
TestParameter, Measurement.Adc.HighResolution.AutoZero, OFF
TestParameter, Measurement.Adc.HighResolution.Mode, AUTO
TestParameter, Measurement.Adc.HighResolution.Coeff, 6
TestParameter, Measurement.WaitTime.Source.Coeff, 1
TestParameter, Measurement.WaitTime.Source.Offset, 0
TestParameter, Measurement.WaitTime.Monitor.Coeff, 1
TestParameter, Measurement.WaitTime.Monitor.Offset, 0
TestParameter, Function.User.Name, Resistance, absItop
TestParameter, Function.User.Unit, ohm, A
TestParameter, Function.User.Definition, abs(Vtop/Itop), abs(Itop)
TestParameter, Output.Graph.Enabled, true
TestParameter, Output.Graph.AutoScaling, false
TestParameter, Output.Graph.XAxis.Data, Vtop
TestParameter, Output.Graph.XAxis.Scale, Linear
TestParameter, Output.Graph.XAxis.Left, 0
TestParameter, Output.Graph.XAxis.Right, 3.5
TestParameter, Output.Graph.XAxis.RunTimeAutoScale, true
TestParameter, Output.Graph.YAxis.Data, absItop
TestParameter, Output.Graph.YAxis.Scale, Linear
TestParameter, Output.Graph.YAxis.Bottom, 0
TestParameter, Output.Graph.YAxis.Top, 1
TestParameter, Output.Graph.YAxis.Group, 
TestParameter, Output.Graph.YAxis.RunTimeAutoScale, true
TestParameter, Output.List.Data, Vtop, Itop, Resistance
TestParameter, AutoAnalysis.Interpolation, false
TestParameter, AutoAnalysis.Line1.Enabled, false
TestParameter, AutoAnalysis.Line1.Type, 1
TestParameter, AutoAnalysis.Line1.Fix, True
TestParameter, AutoAnalysis.Line1.YAxis, 0
TestParameter, AutoAnalysis.Line1.Point1.Type, 0
TestParameter, AutoAnalysis.Line1.Point1.XY.X, 
TestParameter, AutoAnalysis.Line1.Point1.XY.Y, 
TestParameter, AutoAnalysis.Line1.Point1.Data.Var, 
TestParameter, AutoAnalysis.Line1.Point1.Data.Condition, 
TestParameter, AutoAnalysis.Line1.Point1.Data.Start, false
TestParameter, AutoAnalysis.Line1.Point1.Data.StartVar, 
TestParameter, AutoAnalysis.Line1.Point1.Data.StartCondition, 
TestParameter, AutoAnalysis.Line1.Point2.Type, 0
TestParameter, AutoAnalysis.Line1.Point2.XY.X, 
TestParameter, AutoAnalysis.Line1.Point2.XY.Y, 
TestParameter, AutoAnalysis.Line1.Point2.Data.Var, 
TestParameter, AutoAnalysis.Line1.Point2.Data.Condition, 
TestParameter, AutoAnalysis.Line1.Point2.Data.Start, false
TestParameter, AutoAnalysis.Line1.Point2.Data.StartVar, 
TestParameter, AutoAnalysis.Line1.Point2.Data.StartCondition, 
TestParameter, AutoAnalysis.Line1.GradientExpr, 0
TestParameter, AutoAnalysis.Line2.Enabled, false
TestParameter, AutoAnalysis.Line2.Type, 1
TestParameter, AutoAnalysis.Line2.Fix, True
TestParameter, AutoAnalysis.Line2.YAxis, 0
TestParameter, AutoAnalysis.Line2.Point1.Type, 0
TestParameter, AutoAnalysis.Line2.Point1.XY.X, 
TestParameter, AutoAnalysis.Line2.Point1.XY.Y, 
TestParameter, AutoAnalysis.Line2.Point1.Data.Var, 
TestParameter, AutoAnalysis.Line2.Point1.Data.Condition, 
TestParameter, AutoAnalysis.Line2.Point1.Data.Start, false
TestParameter, AutoAnalysis.Line2.Point1.Data.StartVar, 
TestParameter, AutoAnalysis.Line2.Point1.Data.StartCondition, 
TestParameter, AutoAnalysis.Line2.Point2.Type, 0
TestParameter, AutoAnalysis.Line2.Point2.XY.X, 
TestParameter, AutoAnalysis.Line2.Point2.XY.Y, 
TestParameter, AutoAnalysis.Line2.Point2.Data.Var, 
TestParameter, AutoAnalysis.Line2.Point2.Data.Condition, 
TestParameter, AutoAnalysis.Line2.Point2.Data.Start, false
TestParameter, AutoAnalysis.Line2.Point2.Data.StartVar, 
TestParameter, AutoAnalysis.Line2.Point2.Data.StartCondition, 
TestParameter, AutoAnalysis.Line2.GradientExpr, 0
TestParameter, AutoAnalysis.Marker.Enabled, false
TestParameter, AutoAnalysis.Marker.Data.Var, 
TestParameter, AutoAnalysis.Marker.Data.Condition, 
TestParameter, AutoAnalysis.Marker.Data.Start, false
TestParameter, AutoAnalysis.Marker.Data.StartVar, 
TestParameter, AutoAnalysis.Marker.Data.StartCondition, 
MetaData, TestRecord.EntryPoint, true
MetaData, TestRecord.RecordTime, 03/12/2020 00:15:12
MetaData, TestRecord.TestTarget, 
MetaData, TestRecord.IterationIndex, 2
MetaData, TestRecord.Preservation, true
MetaData, TestRecord.Flag, 
MetaData, TestRecord.Remarks, 
MetaData, TestRecord.LinkKey, 14d0ec08-6a2d-4eb4-b128-f71338611c47
Dimension1, 38, 38, 38, 38
Dimension2, 1, 1, 1, 1
DataName, Vtop, Itop, Resistance, absItop
DataValue, 0, -2.5052000000000003E-10, -0, 2.5052000000000003E-10
DataValue, 0.1, 7.6666E-06, 13043.591683405943, 7.6666E-06
DataValue, 0.2, 1.8042E-05, 11085.24553818867, 1.8042E-05
DataValue, 0.3, 3.31E-05, 9063.4441087613286, 3.31E-05
DataValue, 0.4, 5.5432E-05, 7216.0484918458651, 5.5432E-05
DataValue, 0.5, 8.9848E-05, 5564.9541447778474, 8.9848E-05
DataValue, 0.6, 0.00013798, 4348.4562980142045, 0.00013798
DataValue, 0.70000000000000007, 0.00020684000000000002, 3384.2583639528139, 0.00020684000000000002
DataValue, 0.8, 0.00028764000000000003, 2781.254345709915, 0.00028764000000000003
DataValue, 0.9, 0.00039128000000000003, 2300.1431200163565, 0.00039128000000000003
DataValue, 1, 0.00061248, 1632.7063740856845, 0.00061248
DataValue, 1.1, 0.00100004, 1099.9560017599297, 0.00100004
DataValue, 1.2, 0.0010000200000000001, 1199.9760004799903, 0.0010000200000000001
DataValue, 1.3, 0.0010000200000000001, 1299.9740005199894, 0.0010000200000000001
DataValue, 1.4000000000000001, 0.00100004, 1399.9440022399106, 0.00100004
DataValue, 1.5, 0.0010000200000000001, 1499.9700005999878, 0.0010000200000000001
DataValue, 1.6, 0.0010000200000000001, 1599.9680006399872, 0.0010000200000000001
DataValue, 1.7000000000000002, 0.001, 1700.0000000000002, 0.001
DataValue, 1.8, 0.0010000200000000001, 1799.9640007199855, 0.0010000200000000001
DataValue, 1.8, 0.0010000200000000001, 1799.9640007199855, 0.0010000200000000001
DataValue, 1.7000000000000002, 0.001, 1700.0000000000002, 0.001
DataValue, 1.6, 0.0010000200000000001, 1599.9680006399872, 0.0010000200000000001
DataValue, 1.5, 0.00100004, 1499.940002399904, 0.00100004
DataValue, 1.4000000000000001, 0.0010000200000000001, 1399.9720005599888, 0.0010000200000000001
DataValue, 1.3, 0.001, 1300, 0.001
DataValue, 1.2, 0.0010000200000000001, 1199.9760004799903, 0.0010000200000000001
DataValue, 1.1, 0.00100004, 1099.9560017599297, 0.00100004
DataValue, 1, 0.00099696, 1003.0492697801316, 0.00099696
DataValue, 0.9, 0.00087898, 1023.9140822316776, 0.00087898
DataValue, 0.8, 0.00076558000000000008, 1044.959377204211, 0.00076558000000000008
DataValue, 0.70000000000000007, 0.00065460000000000008, 1069.3553315001527, 0.00065460000000000008
DataValue, 0.6, 0.00054668, 1097.5342064827687, 0.00054668
DataValue, 0.5, 0.0004427, 1129.4330246216398, 0.0004427
DataValue, 0.4, 0.00034332000000000004, 1165.093790050099, 0.00034332000000000004
DataValue, 0.3, 0.0002497, 1201.4417300760913, 0.0002497
DataValue, 0.2, 0.00016216, 1233.34977799704, 0.00016216
DataValue, 0.1, 7.9566E-05, 1256.8182389462836, 7.9566E-05
DataValue, 0, -1.1552E-09, -0, 1.1552E-09