
SetupTitle, SET
PrimitiveTest, I/V Sweep
TestParameter, Context.MainFrame, B1500A
TestParameter, Channel.UnitType, SMU, SMU
TestParameter, Channel.Unit, SMU3:MP, SMU4:MP
TestParameter, Channel.IName, Itop, Ibot
TestParameter, Channel.VName, Vtop, Vbot
TestParameter, Channel.Mode, V, COMMON
TestParameter, Channel.Func, VAR1, CONST
TestParameter, Channel.Index, 
TestParameter, Channel.Time, 
TestParameter, Measurement.Port.Unit, SMU3:MP, SMU4:MP
TestParameter, Measurement.Port.SeriesResistor, NONE, NONE
TestParameter, Measurement.Port.Filter, ON, ON
TestParameter, Measurement.Port.OutputVoltageComparison, 0, 0
TestParameter, Measurement.Primary.Locus, Double
TestParameter, Measurement.Primary.Scale, LINEAR
TestParameter, Measurement.Primary.Start, 0
TestParameter, Measurement.Primary.Stop, 1.8
TestParameter, Measurement.Primary.Step, 0.1
TestParameter, Measurement.Primary.Compliance, 0.001
TestParameter, Measurement.Primary.PowerCompliance, 0
TestParameter, Measurement.Aborting.Condition, CONTINUE AT ANY
TestParameter, Measurement.PostOutput.Value, START
TestParameter, Measurement.PostOutput.Retention, OFF
TestParameter, Measurement.Bias.Source, 0, 0
TestParameter, Measurement.Bias.Compliance, 0.001, 0.1
TestParameter, Measurement.Monitor.Unit, SMU3:MP, SMU4:MP
TestParameter, Measurement.Monitor.Adc, HR ADC, HR ADC
TestParameter, Measurement.Monitor.Measurement, Compliance Side, Compliance Side
TestParameter, Measurement.Monitor.RangingMode, LIMITED, LIMITED
TestParameter, Measurement.Monitor.RangeBoundary, 1nA, 1nA
TestParameter, Measurement.Monitor.RangeRating, BY FULL RANGE, BY FULL RANGE
TestParameter, Measurement.Monitor.RangeRatingCoeff, 50, 50
TestParameter, Measurement.Timing.Hold, 0
TestParameter, Measurement.Timing.Delay, 0
TestParameter, Measurement.Adc.HighSpeed.Mode, AUTO
TestParameter, Measurement.Adc.HighSpeed.Coeff, 1
TestParameter, Measurement.Adc.HighResolution.AutoZero, OFF
TestParameter, Measurement.Adc.HighResolution.Mode, AUTO
TestParameter, Measurement.Adc.HighResolution.Coeff, 6
TestParameter, Measurement.WaitTime.Source.Coeff, 1
TestParameter, Measurement.WaitTime.Source.Offset, 0
TestParameter, Measurement.WaitTime.Monitor.Coeff, 1
TestParameter, Measurement.WaitTime.Monitor.Offset, 0
TestParameter, Function.User.Name, Resistance, absItop
TestParameter, Function.User.Unit, ohm, A
TestParameter, Function.User.Definition, abs(Vtop/Itop), abs(Itop)
TestParameter, Output.Graph.Enabled, true
TestParameter, Output.Graph.AutoScaling, false
TestParameter, Output.Graph.XAxis.Data, Vtop
TestParameter, Output.Graph.XAxis.Scale, Linear
TestParameter, Output.Graph.XAxis.Left, 0
TestParameter, Output.Graph.XAxis.Right, 3.5
TestParameter, Output.Graph.XAxis.RunTimeAutoScale, true
TestParameter, Output.Graph.YAxis.Data, absItop
TestParameter, Output.Graph.YAxis.Scale, Linear
TestParameter, Output.Graph.YAxis.Bottom, 0
TestParameter, Output.Graph.YAxis.Top, 1
TestParameter, Output.Graph.YAxis.Group, 
TestParameter, Output.Graph.YAxis.RunTimeAutoScale, true
TestParameter, Output.List.Data, Vtop, Itop, Resistance
TestParameter, AutoAnalysis.Interpolation, false
TestParameter, AutoAnalysis.Line1.Enabled, false
TestParameter, AutoAnalysis.Line1.Type, 1
TestParameter, AutoAnalysis.Line1.Fix, True
TestParameter, AutoAnalysis.Line1.YAxis, 0
TestParameter, AutoAnalysis.Line1.Point1.Type, 0
TestParameter, AutoAnalysis.Line1.Point1.XY.X, 
TestParameter, AutoAnalysis.Line1.Point1.XY.Y, 
TestParameter, AutoAnalysis.Line1.Point1.Data.Var, 
TestParameter, AutoAnalysis.Line1.Point1.Data.Condition, 
TestParameter, AutoAnalysis.Line1.Point1.Data.Start, false
TestParameter, AutoAnalysis.Line1.Point1.Data.StartVar, 
TestParameter, AutoAnalysis.Line1.Point1.Data.StartCondition, 
TestParameter, AutoAnalysis.Line1.Point2.Type, 0
TestParameter, AutoAnalysis.Line1.Point2.XY.X, 
TestParameter, AutoAnalysis.Line1.Point2.XY.Y, 
TestParameter, AutoAnalysis.Line1.Point2.Data.Var, 
TestParameter, AutoAnalysis.Line1.Point2.Data.Condition, 
TestParameter, AutoAnalysis.Line1.Point2.Data.Start, false
TestParameter, AutoAnalysis.Line1.Point2.Data.StartVar, 
TestParameter, AutoAnalysis.Line1.Point2.Data.StartCondition, 
TestParameter, AutoAnalysis.Line1.GradientExpr, 0
TestParameter, AutoAnalysis.Line2.Enabled, false
TestParameter, AutoAnalysis.Line2.Type, 1
TestParameter, AutoAnalysis.Line2.Fix, True
TestParameter, AutoAnalysis.Line2.YAxis, 0
TestParameter, AutoAnalysis.Line2.Point1.Type, 0
TestParameter, AutoAnalysis.Line2.Point1.XY.X, 
TestParameter, AutoAnalysis.Line2.Point1.XY.Y, 
TestParameter, AutoAnalysis.Line2.Point1.Data.Var, 
TestParameter, AutoAnalysis.Line2.Point1.Data.Condition, 
TestParameter, AutoAnalysis.Line2.Point1.Data.Start, false
TestParameter, AutoAnalysis.Line2.Point1.Data.StartVar, 
TestParameter, AutoAnalysis.Line2.Point1.Data.StartCondition, 
TestParameter, AutoAnalysis.Line2.Point2.Type, 0
TestParameter, AutoAnalysis.Line2.Point2.XY.X, 
TestParameter, AutoAnalysis.Line2.Point2.XY.Y, 
TestParameter, AutoAnalysis.Line2.Point2.Data.Var, 
TestParameter, AutoAnalysis.Line2.Point2.Data.Condition, 
TestParameter, AutoAnalysis.Line2.Point2.Data.Start, false
TestParameter, AutoAnalysis.Line2.Point2.Data.StartVar, 
TestParameter, AutoAnalysis.Line2.Point2.Data.StartCondition, 
TestParameter, AutoAnalysis.Line2.GradientExpr, 0
TestParameter, AutoAnalysis.Marker.Enabled, false
TestParameter, AutoAnalysis.Marker.Data.Var, 
TestParameter, AutoAnalysis.Marker.Data.Condition, 
TestParameter, AutoAnalysis.Marker.Data.Start, false
TestParameter, AutoAnalysis.Marker.Data.StartVar, 
TestParameter, AutoAnalysis.Marker.Data.StartCondition, 
MetaData, TestRecord.EntryPoint, true
MetaData, TestRecord.RecordTime, 03/12/2020 00:17:27
MetaData, TestRecord.TestTarget, 
MetaData, TestRecord.IterationIndex, 1
MetaData, TestRecord.Preservation, true
MetaData, TestRecord.Flag, 
MetaData, TestRecord.Remarks, 
MetaData, TestRecord.LinkKey, 6b9964a7-6b9e-4178-9879-8c86ab6c684d
Dimension1, 38, 38, 38, 38
Dimension2, 1, 1, 1, 1
DataName, Vtop, Itop, Resistance, absItop
DataValue, 0, -1.0648E-10, -0, 1.0648E-10
DataValue, 0.1, 8.5205E-06, 11736.400445983216, 8.5205E-06
DataValue, 0.2, 1.8674E-05, 10710.07818357074, 1.8674E-05
DataValue, 0.3, 3.1354E-05, 9568.1571729284933, 3.1354E-05
DataValue, 0.4, 4.7600000000000005E-05, 8403.3613445378141, 4.7600000000000005E-05
DataValue, 0.5, 6.8244E-05, 7326.6514272316972, 6.8244E-05
DataValue, 0.6, 9.5564000000000009E-05, 6278.5149219371306, 9.5564000000000009E-05
DataValue, 0.70000000000000007, 0.00013154, 5321.5751862551315, 0.00013154
DataValue, 0.8, 0.00017886, 4472.7720004472776, 0.00017886
DataValue, 0.9, 0.00024040000000000002, 3743.7603993344424, 0.00024040000000000002
DataValue, 1, 0.00031986000000000004, 3126.3677859063337, 0.00031986000000000004
DataValue, 1.1, 0.00044086, 2495.1231683527653, 0.00044086
DataValue, 1.2, 0.00074594000000000006, 1608.7084752124833, 0.00074594000000000006
DataValue, 1.3, 0.00100004, 1299.9480020799169, 0.00100004
DataValue, 1.4000000000000001, 0.00100004, 1399.9440022399106, 0.00100004
DataValue, 1.5, 0.0010000200000000001, 1499.9700005999878, 0.0010000200000000001
DataValue, 1.6, 0.00099998000000000014, 1600.0320006400127, 0.00099998000000000014
DataValue, 1.7000000000000002, 0.0010000200000000001, 1699.9660006799863, 0.0010000200000000001
DataValue, 1.8, 0.0010000200000000001, 1799.9640007199855, 0.0010000200000000001
DataValue, 1.8, 0.0010000200000000001, 1799.9640007199855, 0.0010000200000000001
DataValue, 1.7000000000000002, 0.001, 1700.0000000000002, 0.001
DataValue, 1.6, 0.0010000200000000001, 1599.9680006399872, 0.0010000200000000001
DataValue, 1.5, 0.0010000200000000001, 1499.9700005999878, 0.0010000200000000001
DataValue, 1.4000000000000001, 0.0010000200000000001, 1399.9720005599888, 0.0010000200000000001
DataValue, 1.3, 0.0010000200000000001, 1299.9740005199894, 0.0010000200000000001
DataValue, 1.2, 0.00100004, 1199.9520019199231, 0.00100004
DataValue, 1.1, 0.00098332, 1118.6592360574382, 0.00098332
DataValue, 1, 0.0008738000000000001, 1144.4266422522314, 0.0008738000000000001
DataValue, 0.9, 0.00076702000000000009, 1173.3722719094676, 0.00076702000000000009
DataValue, 0.8, 0.00066136, 1209.62864400629, 0.00066136
DataValue, 0.70000000000000007, 0.00055838, 1253.6265625559656, 0.00055838
DataValue, 0.6, 0.00045872, 1307.9874433205439, 0.00045872
DataValue, 0.5, 0.00036384000000000004, 1374.230430958663, 0.00036384000000000004
DataValue, 0.4, 0.00027544, 1452.2218995062447, 0.00027544
DataValue, 0.3, 0.00019504, 1538.1460213289581, 0.00019504
DataValue, 0.2, 0.00012338, 1621.0082671421626, 0.00012338
DataValue, 0.1, 5.94E-05, 1683.5016835016836, 5.94E-05
DataValue, 0, -6.1301999999999994E-09, -0, 6.1301999999999994E-09