
SetupTitle, RESET
PrimitiveTest, I/V Sweep
TestParameter, Context.MainFrame, B1500A
TestParameter, Channel.UnitType, SMU, SMU
TestParameter, Channel.Unit, SMU3:MP, SMU4:MP
TestParameter, Channel.IName, Itop, Ibot
TestParameter, Channel.VName, Vtop, Vbot
TestParameter, Channel.Mode, V, V
TestParameter, Channel.Func, VAR1, CONST
TestParameter, Channel.Index, 
TestParameter, Channel.Time, 
TestParameter, Measurement.Port.Unit, SMU3:MP, SMU4:MP
TestParameter, Measurement.Port.SeriesResistor, NONE, NONE
TestParameter, Measurement.Port.Filter, ON, ON
TestParameter, Measurement.Port.OutputVoltageComparison, 0, 0
TestParameter, Measurement.Primary.Locus, Double
TestParameter, Measurement.Primary.Scale, LINEAR
TestParameter, Measurement.Primary.Start, 0
TestParameter, Measurement.Primary.Stop, -4
TestParameter, Measurement.Primary.Step, -0.04
TestParameter, Measurement.Primary.Compliance, 0.1
TestParameter, Measurement.Primary.PowerCompliance, 0
TestParameter, Measurement.Aborting.Condition, CONTINUE AT ANY
TestParameter, Measurement.PostOutput.Value, START
TestParameter, Measurement.PostOutput.Retention, OFF
TestParameter, Measurement.Bias.Source, 0, 0
TestParameter, Measurement.Bias.Compliance, 0.1, 0.1
TestParameter, Measurement.Monitor.Unit, SMU3:MP, SMU4:MP
TestParameter, Measurement.Monitor.Adc, HR ADC, HR ADC
TestParameter, Measurement.Monitor.Measurement, Compliance Side, Compliance Side
TestParameter, Measurement.Monitor.RangingMode, LIMITED, LIMITED
TestParameter, Measurement.Monitor.RangeBoundary, 1nA, 1nA
TestParameter, Measurement.Monitor.RangeRating, BY FULL RANGE, BY FULL RANGE
TestParameter, Measurement.Monitor.RangeRatingCoeff, 50, 50
TestParameter, Measurement.Timing.Hold, 0
TestParameter, Measurement.Timing.Delay, 0
TestParameter, Measurement.Adc.HighSpeed.Mode, AUTO
TestParameter, Measurement.Adc.HighSpeed.Coeff, 1
TestParameter, Measurement.Adc.HighResolution.AutoZero, OFF
TestParameter, Measurement.Adc.HighResolution.Mode, AUTO
TestParameter, Measurement.Adc.HighResolution.Coeff, 6
TestParameter, Measurement.WaitTime.Source.Coeff, 1
TestParameter, Measurement.WaitTime.Source.Offset, 0
TestParameter, Measurement.WaitTime.Monitor.Coeff, 1
TestParameter, Measurement.WaitTime.Monitor.Offset, 0
TestParameter, Function.User.Name, Resistance, absItop
TestParameter, Function.User.Unit, ohm, A
TestParameter, Function.User.Definition, abs(Vtop/Itop), abs(Itop)
TestParameter, Output.Graph.Enabled, true
TestParameter, Output.Graph.AutoScaling, false
TestParameter, Output.Graph.XAxis.Data, Vtop
TestParameter, Output.Graph.XAxis.Scale, Linear
TestParameter, Output.Graph.XAxis.Left, 0
TestParameter, Output.Graph.XAxis.Right, 3.5
TestParameter, Output.Graph.XAxis.RunTimeAutoScale, true
TestParameter, Output.Graph.YAxis.Data, absItop
TestParameter, Output.Graph.YAxis.Scale, Linear
TestParameter, Output.Graph.YAxis.Bottom, 0
TestParameter, Output.Graph.YAxis.Top, 1
TestParameter, Output.Graph.YAxis.Group, 
TestParameter, Output.Graph.YAxis.RunTimeAutoScale, true
TestParameter, Output.List.Data, Vtop, Itop, Resistance
TestParameter, AutoAnalysis.Interpolation, false
TestParameter, AutoAnalysis.Line1.Enabled, false
TestParameter, AutoAnalysis.Line1.Type, 1
TestParameter, AutoAnalysis.Line1.Fix, True
TestParameter, AutoAnalysis.Line1.YAxis, 0
TestParameter, AutoAnalysis.Line1.Point1.Type, 0
TestParameter, AutoAnalysis.Line1.Point1.XY.X, 
TestParameter, AutoAnalysis.Line1.Point1.XY.Y, 
TestParameter, AutoAnalysis.Line1.Point1.Data.Var, 
TestParameter, AutoAnalysis.Line1.Point1.Data.Condition, 
TestParameter, AutoAnalysis.Line1.Point1.Data.Start, false
TestParameter, AutoAnalysis.Line1.Point1.Data.StartVar, 
TestParameter, AutoAnalysis.Line1.Point1.Data.StartCondition, 
TestParameter, AutoAnalysis.Line1.Point2.Type, 0
TestParameter, AutoAnalysis.Line1.Point2.XY.X, 
TestParameter, AutoAnalysis.Line1.Point2.XY.Y, 
TestParameter, AutoAnalysis.Line1.Point2.Data.Var, 
TestParameter, AutoAnalysis.Line1.Point2.Data.Condition, 
TestParameter, AutoAnalysis.Line1.Point2.Data.Start, false
TestParameter, AutoAnalysis.Line1.Point2.Data.StartVar, 
TestParameter, AutoAnalysis.Line1.Point2.Data.StartCondition, 
TestParameter, AutoAnalysis.Line1.GradientExpr, 0
TestParameter, AutoAnalysis.Line2.Enabled, false
TestParameter, AutoAnalysis.Line2.Type, 1
TestParameter, AutoAnalysis.Line2.Fix, True
TestParameter, AutoAnalysis.Line2.YAxis, 0
TestParameter, AutoAnalysis.Line2.Point1.Type, 0
TestParameter, AutoAnalysis.Line2.Point1.XY.X, 
TestParameter, AutoAnalysis.Line2.Point1.XY.Y, 
TestParameter, AutoAnalysis.Line2.Point1.Data.Var, 
TestParameter, AutoAnalysis.Line2.Point1.Data.Condition, 
TestParameter, AutoAnalysis.Line2.Point1.Data.Start, false
TestParameter, AutoAnalysis.Line2.Point1.Data.StartVar, 
TestParameter, AutoAnalysis.Line2.Point1.Data.StartCondition, 
TestParameter, AutoAnalysis.Line2.Point2.Type, 0
TestParameter, AutoAnalysis.Line2.Point2.XY.X, 
TestParameter, AutoAnalysis.Line2.Point2.XY.Y, 
TestParameter, AutoAnalysis.Line2.Point2.Data.Var, 
TestParameter, AutoAnalysis.Line2.Point2.Data.Condition, 
TestParameter, AutoAnalysis.Line2.Point2.Data.Start, false
TestParameter, AutoAnalysis.Line2.Point2.Data.StartVar, 
TestParameter, AutoAnalysis.Line2.Point2.Data.StartCondition, 
TestParameter, AutoAnalysis.Line2.GradientExpr, 0
TestParameter, AutoAnalysis.Marker.Enabled, false
TestParameter, AutoAnalysis.Marker.Data.Var, 
TestParameter, AutoAnalysis.Marker.Data.Condition, 
TestParameter, AutoAnalysis.Marker.Data.Start, false
TestParameter, AutoAnalysis.Marker.Data.StartVar, 
TestParameter, AutoAnalysis.Marker.Data.StartCondition, 
MetaData, TestRecord.EntryPoint, true
MetaData, TestRecord.RecordTime, 03/03/2020 15:31:30
MetaData, TestRecord.TestTarget, 
MetaData, TestRecord.IterationIndex, 1
MetaData, TestRecord.Preservation, true
MetaData, TestRecord.Flag, 
MetaData, TestRecord.Remarks, 
MetaData, TestRecord.LinkKey, 8fc3369f-77ca-4e36-bf9d-00a4010a70b7
Dimension1, 202, 202, 202, 202
Dimension2, 1, 1, 1, 1
DataName, Vtop, Itop, Resistance, absItop
DataValue, 0, 1.6448E-07, 0, 1.6448E-07
DataValue, -0.04, -3.7036E-05, 1080.0302408467437, 3.7036E-05
DataValue, -0.08, -7.4616E-05, 1072.1561059290232, 7.4616E-05
DataValue, -0.12, -0.00011295000000000001, 1062.4169986719787, 0.00011295000000000001
DataValue, -0.16, -0.00015192000000000002, 1053.1858873091098, 0.00015192000000000002
DataValue, -0.2, -0.00019172000000000001, 1043.1879824744419, 0.00019172000000000001
DataValue, -0.24, -0.00023332000000000002, 1028.630207440425, 0.00023332000000000002
DataValue, -0.28, -0.000275, 1018.1818181818182, 0.000275
DataValue, -0.32, -0.0003177, 1007.2395341517154, 0.0003177
DataValue, -0.36, -0.00035868, 1003.6801605888256, 0.00035868
DataValue, -0.4, -0.00040382000000000005, 990.5403397553365, 0.00040382000000000005
DataValue, -0.44, -0.00044886000000000004, 980.26110591275665, 0.00044886000000000004
DataValue, -0.48, -0.00049562, 968.48391913159276, 0.00049562
DataValue, -0.52, -0.00054266, 958.24273025467141, 0.00054266
DataValue, -0.56, -0.0005913, 947.06578724843575, 0.0005913
DataValue, -0.6, -0.00063794, 940.52732231871323, 0.00063794
DataValue, -0.64, -0.00068804, 930.17847799546541, 0.00068804
DataValue, -0.68, -0.00073972, 919.26674958092258, 0.00073972
DataValue, -0.72, -0.0007919, 909.20570779138779, 0.0007919
DataValue, -0.76, -0.00084468000000000011, 899.7490173793625, 0.00084468000000000011
DataValue, -0.8, -0.00089882, 890.05585100465055, 0.00089882
DataValue, -0.84, -0.00095470000000000006, 879.85754687336328, 0.00095470000000000006
DataValue, -0.88, -0.0010104, 870.94220110847186, 0.0010104
DataValue, -0.92, -0.0010673400000000002, 861.95589034422017, 0.0010673400000000002
DataValue, -0.96, -0.00112538, 853.04519362348708, 0.00112538
DataValue, -1, -0.001185, 843.8818565400843, 0.001185
DataValue, -1.04, -0.001245, 835.34136546184743, 0.001245
DataValue, -1.08, -0.0013068, 826.44628099173553, 0.0013068
DataValue, -1.12, -0.0013676, 818.95291020766308, 0.0013676
DataValue, -1.16, -0.0014316, 810.28220173232739, 0.0014316
DataValue, -1.2, -0.0014966, 801.81745289322453, 0.0014966
DataValue, -1.24, -0.0015596, 795.07566042575024, 0.0015596
DataValue, -1.28, -0.0016248, 787.78926637124573, 0.0016248
DataValue, -1.32, -0.001691, 780.60319337670023, 0.001691
DataValue, -1.36, -0.00176, 772.72727272727275, 0.00176
DataValue, -1.4000000000000001, -0.00183, 765.0273224043716, 0.00183
DataValue, -1.44, -0.0018984, 758.53350189633375, 0.0018984
DataValue, -1.48, -0.0019668, 752.49135651820222, 0.0019668
DataValue, -1.52, -0.0020348000000000002, 747.00216237468044, 0.0020348000000000002
DataValue, -1.56, -0.0021060000000000002, 740.74074074074065, 0.0021060000000000002
DataValue, -1.6, -0.0021788, 734.349183036534, 0.0021788
DataValue, -1.6400000000000001, -0.0022508, 728.62982050826383, 0.0022508
DataValue, -1.68, -0.0023242000000000002, 722.82936064022022, 0.0023242000000000002
DataValue, -1.72, -0.0023988, 717.02517925629479, 0.0023988
DataValue, -1.76, -0.002474, 711.39854486661272, 0.002474
DataValue, -1.8, -0.0025486000000000003, 706.27010907949455, 0.0025486000000000003
DataValue, -1.84, -0.0026252, 700.8989791254, 0.0026252
DataValue, -1.8800000000000001, -0.0027028, 695.57495930146524, 0.0027028
DataValue, -1.92, -0.0027778, 691.19447044423646, 0.0027778
DataValue, -1.96, -0.0028556000000000002, 686.37064014567864, 0.0028556000000000002
DataValue, -2, -0.0029336, 681.75620398145622, 0.0029336
DataValue, -2.04, -0.0030092, 677.92104213744517, 0.0030092
DataValue, -2.08, -0.0030862, 673.96798652064035, 0.0030862
DataValue, -2.12, -0.003166, 669.61465571699307, 0.003166
DataValue, -2.16, -0.0032466, 665.31140269820742, 0.0032466
DataValue, -2.2, -0.0033212000000000003, 662.41117668312654, 0.0033212000000000003
DataValue, -2.24, -0.0034052, 657.81745565605547, 0.0034052
DataValue, -2.2800000000000002, -0.0034854, 654.15734205543129, 0.0034854
DataValue, -2.32, -0.0035626, 651.209790602369, 0.0035626
DataValue, -2.36, -0.0036394, 648.45853712150347, 0.0036394
DataValue, -2.4, -0.0037258, 644.15695957915079, 0.0037258
DataValue, -2.44, -0.0037990000000000003, 642.27428270597522, 0.0037990000000000003
DataValue, -2.48, -0.003894, 636.8772470467386, 0.003894
DataValue, -2.52, -0.0039638, 635.7535698067511, 0.0039638
DataValue, -2.56, -0.0040658000000000005, 629.64238280289237, 0.0040658000000000005
DataValue, -2.6, -0.0041462, 627.08021803096813, 0.0041462
DataValue, -2.64, -0.0042256, 624.76334721696321, 0.0042256
DataValue, -2.68, -0.0043134, 621.31960866138081, 0.0043134
DataValue, -2.72, -0.0043708, 622.31170495103868, 0.0043708
DataValue, -2.7600000000000002, -0.0044794, 616.15394918962375, 0.0044794
DataValue, -2.8000000000000003, -0.0045544, 614.79009309678554, 0.0045544
DataValue, -2.84, -0.004662, 609.180609180609, 0.004662
DataValue, -2.88, -0.0047448, 606.98027314112289, 0.0047448
DataValue, -2.92, -0.0048224, 605.50763105507633, 0.0048224
DataValue, -2.96, -0.0049068, 603.244477052254, 0.0049068
DataValue, -3, -0.004998, 600.24009603841534, 0.004998
DataValue, -3.04, -0.0050802, 598.401637730798, 0.0050802
DataValue, -3.08, -0.0051576, 597.17698154180243, 0.0051576
DataValue, -3.12, -0.0052474, 594.580173038076, 0.0052474
DataValue, -3.16, -0.0053230000000000005, 593.65019725718582, 0.0053230000000000005
DataValue, -3.2, -0.0055390000000000005, 577.721610398989, 0.0055390000000000005
DataValue, -3.24, -0.0056022, 578.34422191282, 0.0056022
DataValue, -3.2800000000000002, -0.0056742, 578.055056219379, 0.0056742
DataValue, -3.3200000000000003, -0.0057426000000000005, 578.13533939330614, 0.0057426000000000005
DataValue, -3.36, -0.0058162000000000005, 577.69677796499423, 0.0058162000000000005
DataValue, -3.4, -0.0059074, 575.54931103361878, 0.0059074
DataValue, -3.44, -0.0058788, 585.15343267333469, 0.0058788
DataValue, -3.48, -0.005929, 586.945522010457, 0.005929
DataValue, -3.52, -0.005969, 589.71351985257161, 0.005969
DataValue, -3.56, -0.0061936000000000005, 574.78687677602682, 0.0061936000000000005
DataValue, -3.6, -0.0062434000000000005, 576.60889899734116, 0.0062434000000000005
DataValue, -3.64, -0.006329, 575.13035234634219, 0.006329
DataValue, -3.68, -0.0064778, 568.09410602365, 0.0064778
DataValue, -3.72, -0.0066726, 557.50382159877711, 0.0066726
DataValue, -3.7600000000000002, -0.0067262, 559.00805804168772, 0.0067262
DataValue, -3.8000000000000003, -0.006789, 559.72897333922526, 0.006789
DataValue, -3.84, -0.0068372, 561.63341718832271, 0.0068372
DataValue, -3.88, -0.0069022, 562.13960766132539, 0.0069022
DataValue, -3.92, -0.0068936, 568.64337936636878, 0.0068936
DataValue, -3.96, -0.006936, 570.93425605536333, 0.006936
DataValue, -4, -0.0068568000000000006, 583.3625014584062, 0.0068568000000000006
DataValue, -4, -0.006816, 586.85446009389671, 0.006816
DataValue, -3.96, -0.006956, 569.2926969522714, 0.006956
DataValue, -3.92, -0.0068074, 575.84393454182214, 0.0068074
DataValue, -3.88, -0.006605, 587.433762301287, 0.006605
DataValue, -3.84, -0.0064446, 595.847686435155, 0.0064446
DataValue, -3.8000000000000003, -0.0061198, 620.93532468381329, 0.0061198
DataValue, -3.7600000000000002, -0.0054448000000000005, 690.56714663532171, 0.0054448000000000005
DataValue, -3.72, -0.0050658000000000005, 734.33613644439174, 0.0050658000000000005
DataValue, -3.68, -0.0051388, 716.12049505721188, 0.0051388
DataValue, -3.64, -0.0050584, 719.59512889451207, 0.0050584
DataValue, -3.6, -0.004726, 761.743546339399, 0.004726
DataValue, -3.56, -0.0045256, 786.63602616227683, 0.0045256
DataValue, -3.52, -0.0043538, 808.489135927236, 0.0043538
DataValue, -3.48, -0.004229, 822.88957200283755, 0.004229
DataValue, -3.44, -0.0041132, 836.33180978313715, 0.0041132
DataValue, -3.4, -0.0039966, 850.72311464745019, 0.0039966
DataValue, -3.36, -0.0038914, 863.44246286683449, 0.0038914
DataValue, -3.3200000000000003, -0.0037946, 874.92752859326424, 0.0037946
DataValue, -3.2800000000000002, -0.003699, 886.72614220059484, 0.003699
DataValue, -3.24, -0.0035176, 921.08255628837844, 0.0035176
DataValue, -3.2, -0.003357, 953.23205242776294, 0.003357
DataValue, -3.16, -0.0031602, 999.93671286627432, 0.0031602
DataValue, -3.12, -0.0028726, 1086.1240687878578, 0.0028726
DataValue, -3.08, -0.0025394000000000003, 1212.8849334488461, 0.0025394000000000003
DataValue, -3.04, -0.002373, 1281.0788032026969, 0.002373
DataValue, -3, -0.0022364, 1341.4416025755679, 0.0022364
DataValue, -2.96, -0.002127, 1391.6314057357781, 0.002127
DataValue, -2.92, -0.0020284, 1439.5582725300728, 0.0020284
DataValue, -2.88, -0.0019428, 1482.3965410747376, 0.0019428
DataValue, -2.84, -0.0018586, 1528.0318519315613, 0.0018586
DataValue, -2.8000000000000003, -0.0017822, 1571.0919088766693, 0.0017822
DataValue, -2.7600000000000002, -0.0017046000000000001, 1619.1481872580077, 0.0017046000000000001
DataValue, -2.72, -0.0016332, 1665.4420769042372, 0.0016332
DataValue, -2.68, -0.001565, 1712.4600638977638, 0.001565
DataValue, -2.64, -0.0014996, 1760.4694585222726, 0.0014996
DataValue, -2.6, -0.0014352, 1811.5942028985508, 0.0014352
DataValue, -2.56, -0.001373, 1864.5302257829569, 0.001373
DataValue, -2.52, -0.0013146, 1916.9329073482429, 0.0013146
DataValue, -2.48, -0.0012568, 1973.2654360280076, 0.0012568
DataValue, -2.44, -0.0012004000000000001, 2032.6557814061978, 0.0012004000000000001
DataValue, -2.4, -0.0011452, 2095.7038071952497, 0.0011452
DataValue, -2.36, -0.001094, 2157.2212065813528, 0.001094
DataValue, -2.32, -0.0010436, 2223.0739747029511, 0.0010436
DataValue, -2.2800000000000002, -0.00099366000000000016, 2294.5474307107056, 0.00099366000000000016
DataValue, -2.24, -0.00094728000000000011, 2364.6651465247869, 0.00094728000000000011
DataValue, -2.2, -0.00090238, 2437.9972960393625, 0.00090238
DataValue, -2.16, -0.00085962000000000007, 2512.7381866406085, 0.00085962000000000007
DataValue, -2.12, -0.00081856000000000008, 2589.9139953088347, 0.00081856000000000008
DataValue, -2.08, -0.00077980000000000009, 2667.3506027186454, 0.00077980000000000009
DataValue, -2.04, -0.00074150000000000008, 2751.1800404585297, 0.00074150000000000008
DataValue, -2, -0.00070588000000000009, 2833.3427778092591, 0.00070588000000000009
DataValue, -1.96, -0.00067094000000000008, 2921.2746296241089, 0.00067094000000000008
DataValue, -1.92, -0.00063822, 3008.3670207765344, 0.00063822
DataValue, -1.8800000000000001, -0.00060676, 3098.4244182213724, 0.00060676
DataValue, -1.84, -0.00057676000000000005, 3190.2351064567583, 0.00057676000000000005
DataValue, -1.8, -0.00054834, 3282.63486158223, 0.00054834
DataValue, -1.76, -0.00052092, 3378.6377946709667, 0.00052092
DataValue, -1.72, -0.00049526000000000008, 3472.9233130073085, 0.00049526000000000008
DataValue, -1.68, -0.00047054000000000003, 3570.3659625111568, 0.00047054000000000003
DataValue, -1.6400000000000001, -0.00044726000000000005, 3666.7710056790233, 0.00044726000000000005
DataValue, -1.6, -0.00042478000000000004, 3766.655680587598, 0.00042478000000000004
DataValue, -1.56, -0.00040324, 3868.6638230334293, 0.00040324
DataValue, -1.52, -0.00038260000000000003, 3972.8175640355462, 0.00038260000000000003
DataValue, -1.48, -0.00036338, 4072.8713743188946, 0.00036338
DataValue, -1.44, -0.0003445, 4179.9709724238019, 0.0003445
DataValue, -1.4000000000000001, -0.00032674, 4284.7524025218836, 0.00032674
DataValue, -1.36, -0.00030954, 4393.6163339148416, 0.00030954
DataValue, -1.32, -0.00029284, 4507.5809315667266, 0.00029284
DataValue, -1.28, -0.00027708, 4619.60444636928, 0.00027708
DataValue, -1.24, -0.00026192, 4734.2700061087353, 0.00026192
DataValue, -1.2, -0.00024734000000000003, 4851.621250101075, 0.00024734000000000003
DataValue, -1.16, -0.00023344000000000002, 4969.1569568197392, 0.00023344000000000002
DataValue, -1.12, -0.00021998000000000002, 5091.3719429039, 0.00021998000000000002
DataValue, -1.08, -0.00020704000000000002, 5216.3833075734156, 0.00020704000000000002
DataValue, -1.04, -0.00019468, 5342.0998561742344, 0.00019468
DataValue, -1, -0.00018268, 5474.052988832932, 0.00018268
DataValue, -0.96, -0.00017116, 5608.78709978967, 0.00017116
DataValue, -0.92, -0.00016006, 5747.8445582906406, 0.00016006
DataValue, -0.88, -0.00014948, 5887.0751940058863, 0.00014948
DataValue, -0.84, -0.00013924, 6032.7492099971269, 0.00013924
DataValue, -0.8, -0.00012934, 6185.2481830833467, 0.00012934
DataValue, -0.76, -0.00011994000000000001, 6336.5015841253953, 0.00011994000000000001
DataValue, -0.72, -0.00011074, 6501.7157305400033, 0.00011074
DataValue, -0.68, -0.00010206000000000001, 6662.7474034881443, 0.00010206000000000001
DataValue, -0.64, -9.3706E-05, 6829.87215333063, 9.3706E-05
DataValue, -0.6, -8.5572E-05, 7011.6393212733137, 8.5572E-05
DataValue, -0.56, -7.7812E-05, 7196.8333933069453, 7.7812E-05
DataValue, -0.52, -7.0566E-05, 7368.9878978544912, 7.0566E-05
DataValue, -0.48, -6.3418000000000008E-05, 7568.8290390740785, 6.3418000000000008E-05
DataValue, -0.44, -5.6724E-05, 7756.857767435301, 5.6724E-05
DataValue, -0.4, -5.045E-05, 7928.6422200198222, 5.045E-05
DataValue, -0.36, -4.4234000000000004E-05, 8138.5359678075674, 4.4234000000000004E-05
DataValue, -0.32, -3.8368E-05, 8340.2835696413676, 3.8368E-05
DataValue, -0.28, -3.2782E-05, 8541.272649624796, 3.2782E-05
DataValue, -0.24, -2.7478E-05, 8734.2601353810314, 2.7478E-05
DataValue, -0.2, -2.2422E-05, 8919.81090000892, 2.2422E-05
DataValue, -0.16, -1.7592E-05, 9095.0432014552061, 1.7592E-05
DataValue, -0.12, -1.2974E-05, 9249.2677663018349, 1.2974E-05
DataValue, -0.08, -8.5125E-06, 9397.944199706315, 8.5125E-06
DataValue, -0.04, -4.2031000000000005E-06, 9516.7852299493225, 4.2031000000000005E-06
DataValue, 0, 2.6665799999999998E-08, 0, 2.6665799999999998E-08