
SetupTitle, SET
PrimitiveTest, I/V Sweep
TestParameter, Context.MainFrame, B1500A
TestParameter, Channel.UnitType, SMU, SMU
TestParameter, Channel.Unit, SMU3:MP, SMU4:MP
TestParameter, Channel.IName, Itop, Ibot
TestParameter, Channel.VName, Vtop, Vbot
TestParameter, Channel.Mode, V, V
TestParameter, Channel.Func, VAR1, CONST
TestParameter, Channel.Index, 
TestParameter, Channel.Time, 
TestParameter, Measurement.Port.Unit, SMU3:MP, SMU4:MP
TestParameter, Measurement.Port.SeriesResistor, NONE, NONE
TestParameter, Measurement.Port.Filter, ON, ON
TestParameter, Measurement.Port.OutputVoltageComparison, 0, 0
TestParameter, Measurement.Primary.Locus, Double
TestParameter, Measurement.Primary.Scale, LINEAR
TestParameter, Measurement.Primary.Start, 0
TestParameter, Measurement.Primary.Stop, 3
TestParameter, Measurement.Primary.Step, 0.03
TestParameter, Measurement.Primary.Compliance, 0.002
TestParameter, Measurement.Primary.PowerCompliance, 0
TestParameter, Measurement.Aborting.Condition, CONTINUE AT ANY
TestParameter, Measurement.PostOutput.Value, START
TestParameter, Measurement.PostOutput.Retention, OFF
TestParameter, Measurement.Bias.Source, 0, 0
TestParameter, Measurement.Bias.Compliance, 0.002, 0.1
TestParameter, Measurement.Monitor.Unit, SMU3:MP, SMU4:MP
TestParameter, Measurement.Monitor.Adc, HR ADC, HR ADC
TestParameter, Measurement.Monitor.Measurement, Compliance Side, Compliance Side
TestParameter, Measurement.Monitor.RangingMode, LIMITED, LIMITED
TestParameter, Measurement.Monitor.RangeBoundary, 1nA, 1nA
TestParameter, Measurement.Monitor.RangeRating, BY FULL RANGE, BY FULL RANGE
TestParameter, Measurement.Monitor.RangeRatingCoeff, 50, 50
TestParameter, Measurement.Timing.Hold, 0
TestParameter, Measurement.Timing.Delay, 0
TestParameter, Measurement.Adc.HighSpeed.Mode, AUTO
TestParameter, Measurement.Adc.HighSpeed.Coeff, 1
TestParameter, Measurement.Adc.HighResolution.AutoZero, OFF
TestParameter, Measurement.Adc.HighResolution.Mode, AUTO
TestParameter, Measurement.Adc.HighResolution.Coeff, 6
TestParameter, Measurement.WaitTime.Source.Coeff, 1
TestParameter, Measurement.WaitTime.Source.Offset, 0
TestParameter, Measurement.WaitTime.Monitor.Coeff, 1
TestParameter, Measurement.WaitTime.Monitor.Offset, 0
TestParameter, Function.User.Name, Resistance, absItop
TestParameter, Function.User.Unit, ohm, A
TestParameter, Function.User.Definition, abs(Vtop/Itop), abs(Itop)
TestParameter, Output.Graph.Enabled, true
TestParameter, Output.Graph.AutoScaling, false
TestParameter, Output.Graph.XAxis.Data, Vtop
TestParameter, Output.Graph.XAxis.Scale, Linear
TestParameter, Output.Graph.XAxis.Left, 0
TestParameter, Output.Graph.XAxis.Right, 3.5
TestParameter, Output.Graph.XAxis.RunTimeAutoScale, true
TestParameter, Output.Graph.YAxis.Data, absItop
TestParameter, Output.Graph.YAxis.Scale, Linear
TestParameter, Output.Graph.YAxis.Bottom, 0
TestParameter, Output.Graph.YAxis.Top, 1
TestParameter, Output.Graph.YAxis.Group, 
TestParameter, Output.Graph.YAxis.RunTimeAutoScale, true
TestParameter, Output.List.Data, Vtop, Itop, Resistance
TestParameter, AutoAnalysis.Interpolation, false
TestParameter, AutoAnalysis.Line1.Enabled, false
TestParameter, AutoAnalysis.Line1.Type, 1
TestParameter, AutoAnalysis.Line1.Fix, True
TestParameter, AutoAnalysis.Line1.YAxis, 0
TestParameter, AutoAnalysis.Line1.Point1.Type, 0
TestParameter, AutoAnalysis.Line1.Point1.XY.X, 
TestParameter, AutoAnalysis.Line1.Point1.XY.Y, 
TestParameter, AutoAnalysis.Line1.Point1.Data.Var, 
TestParameter, AutoAnalysis.Line1.Point1.Data.Condition, 
TestParameter, AutoAnalysis.Line1.Point1.Data.Start, false
TestParameter, AutoAnalysis.Line1.Point1.Data.StartVar, 
TestParameter, AutoAnalysis.Line1.Point1.Data.StartCondition, 
TestParameter, AutoAnalysis.Line1.Point2.Type, 0
TestParameter, AutoAnalysis.Line1.Point2.XY.X, 
TestParameter, AutoAnalysis.Line1.Point2.XY.Y, 
TestParameter, AutoAnalysis.Line1.Point2.Data.Var, 
TestParameter, AutoAnalysis.Line1.Point2.Data.Condition, 
TestParameter, AutoAnalysis.Line1.Point2.Data.Start, false
TestParameter, AutoAnalysis.Line1.Point2.Data.StartVar, 
TestParameter, AutoAnalysis.Line1.Point2.Data.StartCondition, 
TestParameter, AutoAnalysis.Line1.GradientExpr, 0
TestParameter, AutoAnalysis.Line2.Enabled, false
TestParameter, AutoAnalysis.Line2.Type, 1
TestParameter, AutoAnalysis.Line2.Fix, True
TestParameter, AutoAnalysis.Line2.YAxis, 0
TestParameter, AutoAnalysis.Line2.Point1.Type, 0
TestParameter, AutoAnalysis.Line2.Point1.XY.X, 
TestParameter, AutoAnalysis.Line2.Point1.XY.Y, 
TestParameter, AutoAnalysis.Line2.Point1.Data.Var, 
TestParameter, AutoAnalysis.Line2.Point1.Data.Condition, 
TestParameter, AutoAnalysis.Line2.Point1.Data.Start, false
TestParameter, AutoAnalysis.Line2.Point1.Data.StartVar, 
TestParameter, AutoAnalysis.Line2.Point1.Data.StartCondition, 
TestParameter, AutoAnalysis.Line2.Point2.Type, 0
TestParameter, AutoAnalysis.Line2.Point2.XY.X, 
TestParameter, AutoAnalysis.Line2.Point2.XY.Y, 
TestParameter, AutoAnalysis.Line2.Point2.Data.Var, 
TestParameter, AutoAnalysis.Line2.Point2.Data.Condition, 
TestParameter, AutoAnalysis.Line2.Point2.Data.Start, false
TestParameter, AutoAnalysis.Line2.Point2.Data.StartVar, 
TestParameter, AutoAnalysis.Line2.Point2.Data.StartCondition, 
TestParameter, AutoAnalysis.Line2.GradientExpr, 0
TestParameter, AutoAnalysis.Marker.Enabled, false
TestParameter, AutoAnalysis.Marker.Data.Var, 
TestParameter, AutoAnalysis.Marker.Data.Condition, 
TestParameter, AutoAnalysis.Marker.Data.Start, false
TestParameter, AutoAnalysis.Marker.Data.StartVar, 
TestParameter, AutoAnalysis.Marker.Data.StartCondition, 
MetaData, TestRecord.EntryPoint, true
MetaData, TestRecord.RecordTime, 03/03/2020 15:35:58
MetaData, TestRecord.TestTarget, 
MetaData, TestRecord.IterationIndex, 1
MetaData, TestRecord.Preservation, true
MetaData, TestRecord.Flag, 
MetaData, TestRecord.Remarks, 
MetaData, TestRecord.LinkKey, 43637395-ece7-45a4-88a6-5e7513e0cc35
Dimension1, 202, 202, 202, 202
Dimension2, 1, 1, 1, 1
DataName, Vtop, Itop, Resistance, absItop
DataValue, 0, 1.2942799999999998E-08, 0, 1.2942799999999998E-08
DataValue, 0.03, 1.5037E-06, 19950.788056128215, 1.5037E-06
DataValue, 0.06, 3.0179000000000004E-06, 19881.374465688059, 3.0179000000000004E-06
DataValue, 0.09, 4.5477000000000005E-06, 19790.223629527012, 4.5477000000000005E-06
DataValue, 0.12, 6.1319000000000005E-06, 19569.790766320388, 6.1319000000000005E-06
DataValue, 0.15, 7.7601E-06, 19329.647813816831, 7.7601E-06
DataValue, 0.18, 9.472400000000001E-06, 19002.575904733749, 9.472400000000001E-06
DataValue, 0.21, 1.1255200000000002E-05, 18658.042504797777, 1.1255200000000002E-05
DataValue, 0.24, 1.3106000000000001E-05, 18312.223409125589, 1.3106000000000001E-05
DataValue, 0.27, 1.5038E-05, 17954.515228088843, 1.5038E-05
DataValue, 0.3, 1.7056E-05, 17589.118198874294, 1.7056E-05
DataValue, 0.33, 1.9172000000000002E-05, 17212.60171082829, 1.9172000000000002E-05
DataValue, 0.36, 2.1382E-05, 16836.591525582266, 2.1382E-05
DataValue, 0.39, 2.3596000000000002E-05, 16528.225122902186, 2.3596000000000002E-05
DataValue, 0.42, 2.604E-05, 16129.032258064515, 2.604E-05
DataValue, 0.45, 2.8514000000000002E-05, 15781.721259732061, 2.8514000000000002E-05
DataValue, 0.48, 3.1208000000000003E-05, 15380.671622660853, 3.1208000000000003E-05
DataValue, 0.51, 3.3876E-05, 15054.906128232378, 3.3876E-05
DataValue, 0.54, 3.6774000000000004E-05, 14684.287812041115, 3.6774000000000004E-05
DataValue, 0.57000000000000006, 3.972E-05, 14350.45317220544, 3.972E-05
DataValue, 0.6, 4.2636E-05, 14072.614691809737, 4.2636E-05
DataValue, 0.63, 4.5872000000000004E-05, 13733.868154865711, 4.5872000000000004E-05
DataValue, 0.66, 4.9106E-05, 13440.312792734087, 4.9106E-05
DataValue, 0.69000000000000006, 5.2688E-05, 13095.961129668996, 5.2688E-05
DataValue, 0.72, 5.602E-05, 12852.552659764369, 5.602E-05
DataValue, 0.75, 5.9626E-05, 12578.405393620233, 5.9626E-05
DataValue, 0.78, 6.3118E-05, 12357.80601413226, 6.3118E-05
DataValue, 0.81, 6.7324000000000008E-05, 12031.370685045451, 6.7324000000000008E-05
DataValue, 0.84, 7.1682000000000009E-05, 11718.423035071564, 7.1682000000000009E-05
DataValue, 0.87, 7.5236000000000009E-05, 11563.613163910892, 7.5236000000000009E-05
DataValue, 0.9, 7.957E-05, 11310.795525951993, 7.957E-05
DataValue, 0.93, 8.5158E-05, 10920.87648840978, 8.5158E-05
DataValue, 0.96, 9.0482E-05, 10609.845052054552, 9.0482E-05
DataValue, 0.99, 9.5324E-05, 10385.632159791869, 9.5324E-05
DataValue, 1.02, 0.000100778, 10121.256623469408, 0.000100778
DataValue, 1.05, 0.00010691800000000001, 9820.6101872463, 0.00010691800000000001
DataValue, 1.08, 0.000114592, 9424.7416922647317, 0.000114592
DataValue, 1.11, 0.00011832, 9381.33874239351, 0.00011832
DataValue, 1.1400000000000001, 0.00012518000000000002, 9106.8860840389843, 0.00012518000000000002
DataValue, 1.17, 0.00013506, 8662.81652598845, 0.00013506
DataValue, 1.2, 0.00014076, 8525.1491901108275, 0.00014076
DataValue, 1.23, 0.00015126, 8131.6937723125739, 0.00015126
DataValue, 1.26, 0.00016172000000000002, 7791.2441256492693, 0.00016172000000000002
DataValue, 1.29, 0.00017030000000000002, 7574.8678802113909, 0.00017030000000000002
DataValue, 1.32, 0.00018266000000000002, 7226.54111463922, 0.00018266000000000002
DataValue, 1.35, 0.00020266000000000002, 6661.4033356360405, 0.00020266000000000002
DataValue, 1.3800000000000001, 0.00020894000000000002, 6604.766918732651, 0.00020894000000000002
DataValue, 1.41, 0.00023358000000000002, 6036.475725661443, 0.00023358000000000002
DataValue, 1.44, 0.00024982, 5764.1501881354579, 0.00024982
DataValue, 1.47, 0.00030936, 4751.7455391776566, 0.00030936
DataValue, 1.5, 0.00033142, 4525.9791201496591, 0.00033142
DataValue, 1.53, 0.00039888, 3835.7400722021662, 0.00039888
DataValue, 1.56, 0.00040954, 3809.1517312106266, 0.00040954
DataValue, 1.59, 0.00042144000000000003, 3772.7790432801821, 0.00042144000000000003
DataValue, 1.62, 0.00043288, 3742.3766401774164, 0.00043288
DataValue, 1.6500000000000001, 0.00043834, 3764.2013049231191, 0.00043834
DataValue, 1.68, 0.0004488, 3743.31550802139, 0.0004488
DataValue, 1.71, 0.00046786, 3654.9395118197749, 0.00046786
DataValue, 1.74, 0.00050086, 3474.0246775546061, 0.00050086
DataValue, 1.77, 0.00060092, 2945.4835918258668, 0.00060092
DataValue, 1.8, 0.0006242, 2883.6911246395389, 0.0006242
DataValue, 1.83, 0.00070208, 2606.5405651777578, 0.00070208
DataValue, 1.86, 0.00074782000000000006, 2487.2295472172445, 0.00074782000000000006
DataValue, 1.8900000000000001, 0.00084928, 2225.4144687264507, 0.00084928
DataValue, 1.92, 0.00089922, 2135.1838259825181, 0.00089922
DataValue, 1.95, 0.00093166000000000006, 2093.0382328317196, 0.00093166000000000006
DataValue, 1.98, 0.00096098000000000006, 2060.396678390809, 0.00096098000000000006
DataValue, 2.0100000000000002, 0.00099706000000000013, 2015.9268248651033, 0.00099706000000000013
DataValue, 2.04, 0.0010108200000000002, 2018.1634712411703, 0.0010108200000000002
DataValue, 2.07, 0.00100324, 2063.3148598540724, 0.00100324
DataValue, 2.1, 0.00098582, 2130.2063256984034, 0.00098582
DataValue, 2.13, 0.00098758, 2156.7872982441927, 0.00098758
DataValue, 2.16, 0.00097078000000000008, 2225.0149364428603, 0.00097078000000000008
DataValue, 2.19, 0.00096578000000000007, 2267.5971753401395, 0.00096578000000000007
DataValue, 2.22, 0.00094452, 2350.4002032778558, 0.00094452
DataValue, 2.25, 0.0009405, 2392.3444976076553, 0.0009405
DataValue, 2.2800000000000002, 0.00093778, 2431.2738595406172, 0.00093778
DataValue, 2.31, 0.00094392000000000011, 2447.241291634884, 0.00094392000000000011
DataValue, 2.34, 0.00094748000000000011, 2469.7091231477179, 0.00094748000000000011
DataValue, 2.37, 0.00093008, 2548.1678995355237, 0.00093008
DataValue, 2.4, 0.00095840000000000009, 2504.1736227045071, 0.00095840000000000009
DataValue, 2.43, 0.0016304, 1490.4317958783122, 0.0016304
DataValue, 2.46, 0.0015912, 1546.0030165912517, 0.0015912
DataValue, 2.49, 0.001596, 1560.1503759398497, 0.001596
DataValue, 2.52, 0.001606, 1569.1158156911581, 0.001606
DataValue, 2.5500000000000003, 0.001636, 1558.6797066014672, 0.001636
DataValue, 2.58, 0.0016526, 1561.1763282100933, 0.0016526
DataValue, 2.61, 0.0016988, 1536.3786202024958, 0.0016988
DataValue, 2.64, 0.0017258, 1529.7253447676442, 0.0017258
DataValue, 2.67, 0.0017602, 1516.8730826042495, 0.0017602
DataValue, 2.7, 0.0018002, 1499.8333518497946, 0.0018002
DataValue, 2.73, 0.001801, 1515.8245419211548, 0.001801
DataValue, 2.7600000000000002, 0.0018004, 1532.9926682959344, 0.0018004
DataValue, 2.79, 0.0018186, 1534.147146156384, 0.0018186
DataValue, 2.82, 0.0020008, 1409.436225509796, 0.0020008
DataValue, 2.85, 0.0020006, 1424.5726282115365, 0.0020006
DataValue, 2.88, 0.0020006, 1439.5681295611316, 0.0020006
DataValue, 2.91, 0.0020004, 1454.7090581883624, 0.0020004
DataValue, 2.94, 0.0020004, 1469.7060587882424, 0.0020004
DataValue, 2.97, 0.0020002, 1484.8515148485151, 0.0020002
DataValue, 3, 0.0020006, 1499.5501349595122, 0.0020006
DataValue, 3, 0.0020006, 1499.5501349595122, 0.0020006
DataValue, 2.97, 0.0020002, 1484.8515148485151, 0.0020002
DataValue, 2.94, 0.0020004, 1469.7060587882424, 0.0020004
DataValue, 2.91, 0.0020004, 1454.7090581883624, 0.0020004
DataValue, 2.88, 0.0020006, 1439.5681295611316, 0.0020006
DataValue, 2.85, 0.0020004, 1424.7150569886026, 0.0020004
DataValue, 2.82, 0.0017016, 1657.2637517630465, 0.0017016
DataValue, 2.79, 0.0013756, 2028.2058738005235, 0.0013756
DataValue, 2.7600000000000002, 0.00068638, 4021.0961857862994, 0.00068638
DataValue, 2.73, 0.00060754000000000005, 4493.5312901208144, 0.00060754000000000005
DataValue, 2.7, 0.00054194000000000009, 4982.101339631693, 0.00054194000000000009
DataValue, 2.67, 0.00049498, 5394.1573396904923, 0.00049498
DataValue, 2.64, 0.00045232000000000003, 5836.5758754863809, 0.00045232000000000003
DataValue, 2.61, 0.00041064000000000004, 6355.93220338983, 0.00041064000000000004
DataValue, 2.58, 0.0003836, 6725.7559958289885, 0.0003836
DataValue, 2.5500000000000003, 0.00035204, 7243.4950573798433, 0.00035204
DataValue, 2.52, 0.00032868000000000003, 7667.0317634173052, 0.00032868000000000003
DataValue, 2.49, 0.00030522000000000004, 8158.0499311971689, 0.00030522000000000004
DataValue, 2.46, 0.00028482000000000003, 8637.0339161575721, 0.00028482000000000003
DataValue, 2.43, 0.00026622, 9127.7890466531444, 0.00026622
DataValue, 2.4, 0.00024946, 9620.7808867153035, 0.00024946
DataValue, 2.37, 0.00023368000000000003, 10142.074631975351, 0.00023368000000000003
DataValue, 2.34, 0.00021974, 10648.948757622644, 0.00021974
DataValue, 2.31, 0.00020794000000000002, 11108.973742425698, 0.00020794000000000002
DataValue, 2.2800000000000002, 0.00019580000000000002, 11644.535240040859, 0.00019580000000000002
DataValue, 2.25, 0.00018628, 12078.591367833369, 0.00018628
DataValue, 2.22, 0.00017574000000000002, 12632.297712529873, 0.00017574000000000002
DataValue, 2.19, 0.00016658000000000002, 13146.836354904548, 0.00016658000000000002
DataValue, 2.16, 0.00015862000000000002, 13617.450510654393, 0.00015862000000000002
DataValue, 2.13, 0.00015104000000000002, 14102.224576271185, 0.00015104000000000002
DataValue, 2.1, 0.0001437, 14613.778705636743, 0.0001437
DataValue, 2.07, 0.00013726, 15080.868424887074, 0.00013726
DataValue, 2.04, 0.00013094000000000002, 15579.654803726897, 0.00013094000000000002
DataValue, 2.0100000000000002, 0.00012532, 16038.940312799236, 0.00012532
DataValue, 1.98, 0.00011984, 16522.029372496661, 0.00011984
DataValue, 1.95, 0.00011476, 16991.983269431857, 0.00011476
DataValue, 1.92, 0.0001099, 17470.427661510465, 0.0001099
DataValue, 1.8900000000000001, 0.00010536000000000001, 17938.496583143507, 0.00010536000000000001
DataValue, 1.86, 0.00010122000000000001, 18375.815056312982, 0.00010122000000000001
DataValue, 1.83, 9.6992000000000009E-05, 18867.535466842626, 9.6992000000000009E-05
DataValue, 1.8, 9.3438000000000009E-05, 19264.110961279137, 9.3438000000000009E-05
DataValue, 1.77, 8.9420000000000008E-05, 19794.229478863788, 8.9420000000000008E-05
DataValue, 1.74, 8.5814E-05, 20276.41177430256, 8.5814E-05
DataValue, 1.71, 8.2536E-05, 20718.232044198896, 8.2536E-05
DataValue, 1.68, 7.9186E-05, 21215.87149243553, 7.9186E-05
DataValue, 1.6500000000000001, 7.5992E-05, 21712.811874934207, 7.5992E-05
DataValue, 1.62, 7.3034E-05, 22181.449735739519, 7.3034E-05
DataValue, 1.59, 7.024E-05, 22636.674259681095, 7.024E-05
DataValue, 1.56, 6.7276E-05, 23188.061121350856, 6.7276E-05
DataValue, 1.53, 6.4626E-05, 23674.682016525858, 6.4626E-05
DataValue, 1.5, 6.2E-05, 24193.548387096773, 6.2E-05
DataValue, 1.47, 5.9504000000000005E-05, 24704.221564936808, 5.9504000000000005E-05
DataValue, 1.44, 5.7024E-05, 25252.525252525251, 5.7024E-05
DataValue, 1.41, 5.4726000000000004E-05, 25764.718780835432, 5.4726000000000004E-05
DataValue, 1.3800000000000001, 5.2562E-05, 26254.708724934364, 5.2562E-05
DataValue, 1.35, 5.0458000000000004E-05, 26754.924888025686, 5.0458000000000004E-05
DataValue, 1.32, 4.8406000000000004E-05, 27269.346775193157, 4.8406000000000004E-05
DataValue, 1.29, 4.6384E-05, 27811.314246291826, 4.6384E-05
DataValue, 1.26, 4.4378E-05, 28392.446707828203, 4.4378E-05
DataValue, 1.23, 4.2474E-05, 28958.892498940528, 4.2474E-05
DataValue, 1.2, 4.0462E-05, 29657.456378824576, 4.0462E-05
DataValue, 1.17, 3.8814000000000005E-05, 30143.762559901061, 3.8814000000000005E-05
DataValue, 1.1400000000000001, 3.7042E-05, 30775.876032611632, 3.7042E-05
DataValue, 1.11, 3.5386E-05, 31368.337760696322, 3.5386E-05
DataValue, 1.08, 3.3662000000000004E-05, 32083.655160121205, 3.3662000000000004E-05
DataValue, 1.05, 3.2084E-05, 32726.592694177783, 3.2084E-05
DataValue, 1.02, 3.0566E-05, 33370.411568409349, 3.0566E-05
DataValue, 0.99, 2.9152E-05, 33959.934138309545, 2.9152E-05
DataValue, 0.96, 2.7662E-05, 34704.648976935867, 2.7662E-05
DataValue, 0.93, 2.6314000000000003E-05, 35342.403283423271, 2.6314000000000003E-05
DataValue, 0.9, 2.4946E-05, 36077.928325182394, 2.4946E-05
DataValue, 0.87, 2.3598E-05, 36867.531146707348, 2.3598E-05
DataValue, 0.84, 2.2298000000000002E-05, 37671.540048434828, 2.2298000000000002E-05
DataValue, 0.81, 2.1064E-05, 38454.234713254846, 2.1064E-05
DataValue, 0.78, 1.9864E-05, 39267.015706806284, 1.9864E-05
DataValue, 0.75, 1.8682000000000002E-05, 40145.594690076, 1.8682000000000002E-05
DataValue, 0.72, 1.7606E-05, 40895.149380892872, 1.7606E-05
DataValue, 0.69000000000000006, 1.6468000000000002E-05, 41899.441340782119, 1.6468000000000002E-05
DataValue, 0.66, 1.5452E-05, 42712.917421692982, 1.5452E-05
DataValue, 0.63, 1.4424000000000001E-05, 43677.204658901828, 1.4424000000000001E-05
DataValue, 0.6, 1.345E-05, 44609.665427509295, 1.345E-05
DataValue, 0.57000000000000006, 1.2476E-05, 45687.720423212573, 1.2476E-05
DataValue, 0.54, 1.1578E-05, 46640.179651062361, 1.1578E-05
DataValue, 0.51, 1.0696E-05, 47681.376215407625, 1.0696E-05
DataValue, 0.48, 9.8528000000000016E-06, 48717.115946735947, 9.8528000000000016E-06
DataValue, 0.45, 9.0095E-06, 49947.2778733559, 9.0095E-06
DataValue, 0.42, 8.220800000000001E-06, 51089.918256130783, 8.220800000000001E-06
DataValue, 0.39, 7.4535000000000007E-06, 52324.411350372306, 7.4535000000000007E-06
DataValue, 0.36, 6.7223000000000008E-06, 53553.099385626934, 6.7223000000000008E-06
DataValue, 0.33, 6.0148E-06, 54864.667154352595, 6.0148E-06
DataValue, 0.3, 5.3374000000000008E-06, 56207.142054183678, 5.3374000000000008E-06
DataValue, 0.27, 4.7066000000000008E-06, 57366.251646623881, 4.7066000000000008E-06
DataValue, 0.24, 4.0902E-06, 58676.837318468526, 4.0902E-06
DataValue, 0.21, 3.5004000000000004E-06, 59993.143640726768, 3.5004000000000004E-06
DataValue, 0.18, 2.9394E-06, 61236.9871402327, 2.9394E-06
